#Digilent WaveForms Network Analyzer - Bode
#Device Name: Alan
#Serial Number: SN:210321A3716A
#Date Time: 2024-05-02 15:33:28.915
#Start: 30 Hz
#Stop: 651605 Hz
#Steps: 500
#Wavegen: Wavegen1
#Amplification: 1 X
#Settle: 10 ms
#MinPeriods: 16
#Channel: Channel 1
#Range: 5.42113 V
#Offset: 0.000260719 V
#Relative: no
#Channel: Channel 2
#Range: 5.45542 V
#Offset: 8.94103e-05 V
#Relative: yes
#NOTE: OPAMP 1st
Frequency (Hz),Channel 1 Magnitude (X),Channel 2 Magnitude (X),Channel 2 Phase (°)
30.000000000000043,1.0029314730920409,0.60656629143074958,78.94636832943462
30.606407993616489,1.0029263558519561,0.61741106731414874,78.948220433471946
31.22507367572361,1.0029483591054482,0.63770355454522942,78.66238732025532
31.856244818330982,1.0029430313337269,0.66436994824144424,78.502665418190219
32.500174201812264,1.0029261801801781,0.68048480551037394,78.233551237021686
33.157119716142468,1.0028838865148599,0.70158741554755899,78.147545498992187
33.827344464181273,1.0028971849329211,0.72062136531902421,77.974478115784109
34.511116867044493,1.0029448184227385,0.73909217494578106,77.754438502504101
35.208710771604736,1.0030130323372748,0.75952592805990238,77.51461451257299
35.920405560165683,1.0029104887620253,0.77830021490687151,77.255596002153453
36.646486262353328,1.0030492128749082,0.79860157617593497,77.007162185452358
37.387243669268202,1.0029518586313733,0.81774694760273126,76.792971839829605
38.142974449945797,1.0029975618868245,0.83495660640484759,76.547694508818267
38.913981270170964,1.002928188804074,0.85386904078114523,76.281183416244318
39.700572913693378,1.0029927723556971,0.87249400048034709,76.023628342027507
40.503064405893923,1.0029937649708849,0.89100158005904562,75.733033265360632
41.321777139950363,1.0029184480901561,0.90989877678945064,75.45498197799148
42.157039005553813,1.0027612871450218,0.92739723014008091,75.193402191563521
43.009184520226086,1.0029521389687182,0.94295175880833149,74.923636872231171
43.878554963292324,1.0029667893400322,0.96101007634617608,74.686080661494145
44.765498512561628,1.0029161697086331,0.97712327879148364,74.456447191755927
45.670370383769715,1.0028817779543806,0.99416736965529684,74.015642775542062
46.593532972841011,1.0028833580010528,1.0098457456103147,73.823970903081801
47.535356001026429,1.0029399638505752,1.0260629727042987,73.463151331480702
48.496216662973964,1.0028994493881136,1.0418474521280698,73.117312510383613
49.476499777793379,1.0028767403824821,1.0568626218808255,72.86278239428249
50.476597943173822,1.0028464614775789,1.0727325324889327,72.59534614004653
51.496911692617189,1.0027579425028688,1.088581196823611,72.302167901182074
52.537849655849406,1.0028544404707775,1.1020339514488631,71.748365741476675
53.599828722473504,1.0029330865514299,1.1196178127590095,71.530023905060261
54.683274208932737,1.002897266692548,1.1340956376513605,70.993475970304303
55.788620028846637,1.0027250432961643,1.1453746089984391,71.154354983315329
56.916308866790743,1.0028012953381125,1.157558062085045,70.657759575718202
58.066792355589563,1.0027542542096275,1.1772392664056104,70.456951170823416
59.240531257192636,1.0027353618647625,1.185665280610696,69.744783304458366
60.437995647207529,1.0028059835778631,1.2006969317386487,69.326561281607766
61.659665103161622,1.0027090843771995,1.2153036273286184,69.313743911838486
62.906028896570504,1.0027866865848287,1.2309230646187708,68.410785200992734
64.177586188888753,1.002922727412493,1.2462993308981569,67.996356107955535
65.474846231420443,1.0027361768233369,1.2553214346437211,68.02732760630785
66.798328569271746,1.0027205607424035,1.2749389134627038,67.371909235481127
68.14856324942582,1.0027341749718979,1.2890510799824912,67.083989290415445
69.52609103302342,1.002718758716961,1.2985507879794587,66.656729170503041
70.931463611934362,1.0027111732891847,1.3143122302199881,66.448006290740764
72.365243829707396,1.0026373747192949,1.3266321761785544,66.021247138378016
73.828005906985254,1.00274970968437,1.341179234822057,65.702728754117615
75.32033567147711,1.0026661845885638,1.3531119736438852,65.015116560674031
76.842830792579036,1.0027216009742448,1.3665078731345941,64.568659698844641
78.396101020736822,1.002768497311628,1.3784517971470878,64.256251139923677
79.980768431648073,1.0026078022260272,1.393310458004438,63.848219056575033
81.597467675399244,1.0026519603567499,1.4041907216816529,63.382307508067186
83.246846230639875,1.0025589195755316,1.4176380200285743,62.936195089057179
84.929564663893856,1.0025886163453002,1.4302021748580369,62.476542710952238
86.646296894112112,1.0025720602459951,1.4429408416748091,62.042268642080337
88.39773046257389,1.002415979884983,1.4560154997215609,61.57563832565863
90.184566808242366,1.002526039242613,1.4687762047433675,60.930239533466803
92.007521548687421,1.0025292279458164,1.480278064820588,60.59874843889331
93.867324766686167,1.0024769131694817,1.4925450039239012,60.124665537559395
95.764721302616366,1.0023902138006522,1.5052045062061836,59.648434189952653
97.700471052761642,1.0024633766940876,1.5173009173893861,59.161330292646227
99.675349273644429,1.0024868722716069,1.5304251799116035,58.735772395684194
101.69014689251264,1.0024052422153158,1.5415719112984199,58.130953067866031
103.745670824101,1.0023475070068737,1.5534990417678629,57.64905931114086
105.84274429379541,1.0024170562374677,1.5664023358086985,57.297851341455704
107.9822071673307,1.0024226566454959,1.5767457858173,56.588786246751354
110.16491628715114,1.0022827639819718,1.5884573946409137,56.188313717606889
112.39174581557155,1.0023482294741979,1.6036550219235266,55.498321146257879
114.66358758487391,1.0023537250015904,1.6159986620119335,54.953842142419184
116.98135145448069,1.0022418075032267,1.6235791744786614,54.526790568989355
119.34596567534909,1.0021617971334136,1.6402328399412776,53.712349466021308
121.75837726172917,1.0019507591713821,1.6489339149964386,53.321747840680949
124.21955237043835,1.0023239713299017,1.6589614307325875,53.063260995541327
126.73047668780139,1.002045604449824,1.6695303006858415,52.408080092555153
129.29215582441145,1.0022582489041747,1.6815445072399609,51.998806650759576
131.90561571787234,1.0021545840994839,1.6944886951242197,51.203677401538243
134.57190304367944,1.0021886771092774,1.7064997927003509,50.772807059913511
137.2920856344081,1.0020672628163838,1.7169316046729186,50.16434749069515
140.06725290737407,1.0021699806675608,1.72730646260955,49.708213130039056
142.89851630093807,1.0020396631241735,1.738829676117684,49.258191421430922
145.78700971963218,1.0020423307919883,1.7488575129240453,48.566985280215029
148.73388998827934,1.0020454801729211,1.7587326219032933,47.941669873816821
151.74033731529823,1.0018776317175786,1.769629333526908,47.401982770819544
154.80755576536635,1.0019464138370973,1.7805995237555312,46.867893980597586
157.9367737416444,1.0019966161756879,1.7896684154317302,46.286869007619487
161.12924447774176,1.0018130860297294,1.8001257539538444,45.809487146458054
164.38624653963114,1.0018888442455676,1.8096568944197231,45.259367563486308
167.70908433770535,1.0018092460753201,1.8202821857192348,44.53906468696357
171.09908864918819,1.0018620438619066,1.8304106086963827,44.096678418800693
174.55761715109972,1.0019026260174559,1.8402155090951657,43.494702643700322
178.08605496400213,1.0018800411321567,1.8471555154306027,43.006711070034441
181.68581520672805,1.0017755023275299,1.8566681392557127,42.443750532573674
185.35833956233054,1.0017951979804083,1.8678569865998964,41.838332475233656
189.1050988554662,1.0017663573111222,1.8763833838297288,41.421115853861409
192.92759364145209,1.0018168109286072,1.8848987603454499,40.729533231808475
196.82735480723085,1.0016654983260311,1.8920226894514625,40.084812069089935
200.80594418448013,1.0015998147291025,1.9029253785299765,39.375872250499782
204.86495517511884,1.0017298655488098,1.907925438005327,39.044899881379138
209.00601338945441,1.0016038554552602,1.9198202654956016,38.325779150725218
213.23077729722991,1.0017184939545209,1.925690564145988,37.816414176999366
217.54093889183289,1.0015116756747751,1.9350877715946684,37.230156141067667
221.93822436792715,1.0015670344957948,1.9430674066094065,36.674361417538407
226.42439481278529,1.0015244617739008,1.9483626393681899,36.37556866009362
231.00124691159328,1.0016824377651847,1.9554727824847324,35.853882920321496
235.67061366701159,1.0015724086593945,1.9653057761657076,35.238202849569582
240.4343651332839,1.0015374315694752,1.9722087432868693,34.758644934368817
245.29440916518098,1.0015531294482334,1.979552814105624,34.132248336845521
250.252692182087,1.0014785817790426,1.9851229684258029,33.823282347506051
255.31119994752882,1.0014718897908761,1.9924564921213286,33.300303963597287
260.4719583644615,1.0015170114518666,1.9977377278934154,32.539728309565902
265.73703428663288,1.001284046795728,2.0046834042053225,32.073973702490321
271.10853634634395,1.0014054743003649,2.0112776493824676,31.566576320755551
276.58861579894631,1.0015059469030236,2.0182287982157865,31.152900018411046
282.179467384406,1.0012423416346892,2.0245186898041694,30.385243338375176
287.88333020628352,1.0014180466990845,2.0294603175494608,30.048869453472072
293.70248862848399,1.0013818991772336,2.0329640557250697,29.597868795412431
299.63927319012885,1.0011584144080674,2.0412561107807803,29.058779402215592
305.69606153892613,1.0013801046743716,2.0437208657651529,28.624442440334207
311.87527938340145,1.0013546180974313,2.0517586536205656,28.249472941574169
318.17940146438309,1.001156086913872,2.0583004618261067,27.594208894066611
324.61095254611968,1.0010419973282714,2.0586792995260654,27.318207914112122
331.17250842743323,1.0011673110280597,2.0636630131265679,26.777708450135378
337.86669697331342,1.001355623747672,2.0699544295495342,26.452588745441105
344.69619916735985,1.0010994009826926,2.0763065917703978,25.827868668852602
351.66375018550264,1.0011619153454256,2.0783292918430183,25.430455375276836
358.7721404914235,1.0011349124624593,2.0856484462528417,24.962354495539671
366.0242169541188,1.0010086595297731,2.0890215114558375,24.385851351395704
373.42288398805852,1.0012397068539818,2.0930519318110652,24.256543377579902
380.97110471637995,1.0014371950655134,2.0970762091099875,23.724198928799247
388.67190215761002,1.0012140693944018,2.0991411444737849,23.256176916529029
396.52836043635904,1.0008661192551547,2.1008068364299879,22.860982465945121
404.54362601850016,1.0010942206243105,2.1062652808914892,22.520611603146477
412.72090897130596,1.0010252895329972,2.1080901877498839,22.195748782038763
421.06348424906798,1.0009739256304342,2.1125677280534818,21.702511678970119
429.57469300468802,1.0010895816947409,2.1163750595081781,21.457688827328138
438.25794392780097,1.0010847041124129,2.1192202262086322,20.928174013106904
447.11671460992432,1.0010057851563501,2.1242091605429572,20.614177276454512
456.1545529372242,1.0008761671963136,2.1261634844243251,20.201575667819291
465.3750785114122,1.0009316267599067,2.1306841342877703,19.679023436502092
474.78198409938562,1.0009037572352488,2.1319627254145077,19.475749785849175
484.37903711214989,1.0009130822049461,2.1336178348874371,19.094830314036301
494.17008111365152,1.0009916147358888,2.1377634161492929,18.776552959910077
504.15903736009733,1.0009649182067029,2.1399825286292637,18.42513450058545
514.34990637040232,1.0010076551966849,2.1412113881551642,18.089199709794542
524.7467695283641,1.0008700632107981,2.1440577513312404,17.743632398264864
535.35379071724492,1.0008683007868644,2.1465568882840924,17.438631806183878
546.17521798737062,1.0006995056314674,2.1486451471405772,17.079311432737285
557.2153852574628,1.0008024321664184,2.1507959457943686,16.763697978079563
568.4787140503347,1.0007883412415111,2.153194886781971,16.424731421184731
579.96971526369884,1.0010272040310904,2.1544946269199476,16.163948266867777
591.69299097674366,1.0007883944060385,2.157136687654011,15.870318797424915
603.65323629324769,1.0010881342396176,2.1583790673878753,15.587579278283595
615.85524122193522,1.0009272538492529,2.1602138770434367,15.25107638174272
628.3038925948548,1.0009194054745068,2.158250947786994,15.064894915612399
641.00417602451512,1.0007839113812709,2.1616746800757989,14.653956286144648
653.96117790060816,1.0007617817654486,2.1642505218973058,14.510876011157464
667.18008742706604,1.0007917600958358,2.1667060725213667,14.104978036561761
680.6661987003157,1.0009076743415584,2.1671812026921105,13.856340698933337
694.42491282952813,1.0008638951654822,2.1695699393126455,13.591859978022924
708.46174009973504,1.0009300724504904,2.1681900332575514,13.246274876363202
722.78230217866496,1.0006280067198252,2.1725671178061465,13.090017139354032
737.39233436818563,1.0010305037725378,2.1735161391731679,12.826374985847075
752.29768790126434,1.0007600958141398,2.1710045097226849,12.615338657415592
767.50433228534689,1.0012024921441993,2.1754527712624574,12.319322556543952
783.0183576931156,1.0007739310287329,2.1736121945549889,12.11830433400749
798.84597740156664,1.0004429539689368,2.1790077610356704,11.835275831804857
814.99353028038763,1.0005172968199829,2.179889385598476,11.649356704917878
831.46748333064477,1.000861380094366,2.1797174818902496,11.434263744078088
848.27443427477237,1.0006477998753787,2.1815151761850871,11.172776002495588
865.42111419892797,1.0007496879119664,2.1816315932265211,10.948069258700784
882.91439024875058,1.0008276619194165,2.1834710995453896,10.728788464629876
900.7612683796109,1.0007282870121441,2.1839032914815006,10.530642670119633
918.9688961624604,1.0009497787512471,2.1831662387282482,10.357814757011994
937.5445656463861,1.0008740226179456,2.1858290566841649,10.105325852278369
956.49571627903947,1.0007287960327995,2.1870014880733124,9.9081911350314442
975.8299378860894,1.0008128238508323,2.1877426399989037,9.6905483854025078
995.55497371090053,1.0006720789305712,2.1883345769998042,9.6367579948225313
1015.6787235156639,1.0005795092032832,2.1891257532595878,9.3347326290725121
1036.209246745198,1.0007190681955427,2.1890844969693628,9.1418302042361717
1057.1547657547155,1.00086460029594,2.1899072178612333,8.965463519243265
1078.5236691028285,1.0007967054220681,2.1904820786735524,8.7782903235685978
1100.3245149111106,1.0007382052130034,2.191604973814365,8.6003438766651641
1122.5660342915851,1.0006416646181802,2.1920003559858503,8.4076921654085481
1145.2571348434738,1.0007874963221202,2.1931439037369937,8.2626792434789351
1168.4069042206522,1.0006379938308034,2.1931380610589661,8.0951329600337658
1192.0246137711861,1.0009791591941428,2.1933658757416943,7.9297693141448207
1216.1197222504663,1.0007380733733808,2.1940073200504111,7.7615059965070401
1240.7018796093737,1.0004065824280499,2.1970381442508859,7.7681444873300691
1265.7809308590442,1.0008602744828643,2.1953650645257174,7.4396613559054003
1291.3669200137144,1.0004200112487152,2.1976759858844823,7.1631484601950106
1317.4700941133215,1.000611194600451,2.1966843089229857,7.1278976369403324
1344.1009073273499,1.0004018785975024,2.1969819794133678,7.0002031649324863
1371.2700251416989,1.0003811815957526,2.197292563969881,6.8558595967382558
1398.9883286301144,1.0007058882930844,2.197548968264484,6.7274323876460187
1427.2669188120281,1.0008513315931558,2.1991845543866777,6.7046540618355976
1456.1171210984244,1.0008776202805678,2.1991878311366051,6.5313745111659927
1485.5504898276195,1.0004189263378811,2.198558645435893,6.291982777993077
1515.5788128926945,1.0001777696424969,2.1991456945513872,6.1588147067188146
1546.2141164624898,1.0002735972531944,2.1998120620897685,6.0204318657383453
1577.4686697980017,1.0005166106518935,2.2022810767366217,5.9912691824964668
1609.3549901661704,1.000720608416876,2.1998629695306908,5.7795013889038103
1641.8858478529432,1.0000587596923896,2.2008029611910103,5.6687739401015449
1675.0742712777362,1.0004304610052648,2.2007665389885447,5.5260497119999137
1708.9335522112017,1.0006818480404893,2.2009164556253809,5.4299381615165885
1743.4772510985426,1.0010572453863531,2.2015288521255836,5.4165572545440668
1778.7192024903602,1.0006264819016744,2.2014007134711111,5.19386385393409
1814.6735205833345,1.0007833783688327,2.2010265562255311,5.0664123918997461
1851.3546048728604,1.0006539545958539,2.2014586607731217,4.9705602966105573
1888.7771459199778,1.0004962452289454,2.2027588855437306,4.8760648326001039
1926.9561312348383,1.0003206214256735,2.2029669136370793,4.8357384592078247
1965.9068512791393,1.00030365210848,2.2025805985721321,4.6396702805915169
2005.6449055898377,1.0002577829804864,2.2028051767467072,4.5360585312784849
2046.186209026697,0.99999550391683489,2.20384722384826,4.4399304636457941
2087.5469981460792,1.0003814308732375,2.2039406247446234,4.3303192191251014
2129.7438377036037,1.0001162824405607,2.2039925250124357,4.2356975689079519
2172.7936272882316,1.0005586286647514,2.2042067783843433,4.1364458521526331
2216.7136080904447,1.0003326651136666,2.2037707421205668,4.0429660430430516
2261.521369807258,1.0001127592806882,2.2040668622868838,3.9572269372925888
2307.2348576867739,1.0006304680026887,2.2042538298325738,3.861671144245129
2353.8723797151638,1.000383461552194,2.205158817285723,3.7687499931725483
2401.4526139489049,0.99990383461703647,2.2059947741741368,3.6707649349100109
2449.9946159952269,0.99985550151638858,2.2051701211633588,3.5976547103188974
2499.5178266437861,0.9999815497432476,2.2056725970411097,3.4982452026841173
2550.04207965257,0.99982662179455795,2.2058897256640999,3.4205222528926953
2601.5876096912216,1.0002527339065705,2.2057449269407789,3.3329101202469786
2654.1750604448966,1.0003954755291322,2.2051425787939065,3.2565012810396823
2707.8254928819342,1.0004408048795335,2.2053387442270824,3.1683927060431074
2762.5603936886682,1.0002712958091646,2.2063521728733533,3.088668271417589
2818.4016838746984,1.0002633717269154,2.2051611825179047,3.0731716338839021
2875.3717275521517,0.99984524570861066,2.2066490665205074,2.8411777682490538
2933.4933408923634,0.99994804937124893,2.2061117396439549,2.8611761888388525
2992.7898012636188,0.99965648906935489,2.2065591567930443,2.7762467898529479
3053.2848565536201,0.9996327189755484,2.2071030963526761,2.7129423441771223
3115.0027346803554,1.0000283884649106,2.2064413289063074,2.6473582875403139
3177.9681532952609,0.99993872997792921,2.2077191723431318,2.5534105151956226
3242.2063296824863,0.99979249744453491,2.2072099029477763,2.4942333257219218
3307.7429908582594,0.99978623383888277,2.2068553061697704,2.3858613523504886
3374.6043838744336,0.99926615744092806,2.2076079751453581,2.3521286124562533
3442.8172863302452,0.99946110797606236,2.2083462457204193,2.2814459086362859
3512.4090170966301,0.99975370192512236,2.2077662803757034,2.2302234450384262
3583.4074472572229,0.99976426730441337,2.2073669598868371,2.1570284174675578
3655.841011270606,0.99951754207280985,2.208560897831938,2.0855924264633643
3729.7387183581131,0.99960909801308162,2.2079244139801344,2.0256258569785359
3805.1301641218838,0.99963418511934343,2.208147405856288,1.9455756876394759
3882.045542397695,1.0004601270193327,2.2063339751995299,1.8840252933684809
3960.5156573474678,0.99951203300359981,2.2083217412454594,1.8424152649078565
4040.5719357960802,0.9995998834789922,2.2083454087820651,1.7732301489509088
4122.2464398177181,0.99985940916763216,2.2080500194939989,1.7127973956343041
4205.5718795764569,0.9993833585711438,2.2098419305171264,1.7453839709121439
4290.5816264265804,0.99926010365193796,2.2095076338524331,1.5643772643389013
4377.3097262775409,0.99971971647100311,2.2087402710357176,1.5229074747354421
4465.7909132291934,0.99957299694506396,2.2087309250987399,1.4709108502839783
4556.0606234825891,0.99927179948074085,2.2097036796620206,1.4226678046236145
4648.1550095319508,0.99887168158126538,2.2086710695411762,1.2528227967007943
