#Digilent WaveForms Network Analyzer - Bode
#Device Name: Alan
#Serial Number: SN:210321A3716A
#Date Time: 2024-05-07 15:09:06.326
#Start: 20 Hz
#Stop: 100000 Hz
#Steps: 200
#Wavegen: Wavegen1
#Amplification: 1 X
#Settle: 10 ms
#MinPeriods: 16
#Channel: Channel 1
#Range: 5.42113 V
#Offset: 0.000260719 V
#Relative: no
#Channel: Channel 2
#Range: 5.45542 V
#Offset: 8.94103e-05 V
#Relative: yes

Frequency (Hz),Channel 1 Magnitude (X),Channel 2 Magnitude (X),Channel 2 Phase (°)
20.000000000000004,1.0021399129594628,2.2862862775458606,-174.09564580686464
20.874581848777456,1.0020761647885483,2.3750757653709962,-174.01388868519632
21.787408368065453,1.0021010263222399,2.3775362638224458,-174.26119501381726
22.74015196259603,1.0021718715726304,2.3769697635013087,-174.49509358949871
23.734558169842401,1.0021560718053266,2.3758393236325528,-174.7126031279227
24.772448858047262,1.0020550035951985,2.3766256400931152,-174.93869816953003
25.855725564098059,1.0022528764968754,2.375807453648195,-175.1726662975824
26.986372977364621,1.0020301686725177,2.3760709709529131,-175.37349574893827
28.16646257588166,1.0020603478486763,2.3757970407153088,-175.55796536271245
29.398156421538435,1.0021316277202184,2.3754959345994164,-175.72339210979302
30.683711121228328,1.0021893419550414,2.3750361940388638,-175.91130653036095
32.02548196121618,1.0021500161680337,2.3753125813033873,-176.09077325735649
33.425927222297645,1.0020256700535217,2.3754524955044762,-176.25960417735297
34.887612683656492,1.002146334481073,2.3747239658191157,-176.43184952586432
36.413216323671691,1.0021280057385664,2.3747294688657439,-176.57160921511576
38.005533226286232,1.0021571793158766,2.3742636474034184,-176.72027310602877
39.667480701927147,1.0020689641721479,2.3731384979657375,-176.87318015469515
41.402103632358916,1.0020556371513809,2.3750274796900688,-176.98695057640623
43.212580049262073,1.0020534915203101,2.3741046771604264,-177.10959388455493
45.102226956758436,1.0020920921680043,2.3735211710830346,-177.24475529354862
47.074506408549531,1.0021428759524751,2.3729365667473736,-177.3399837245951
49.133031850803299,1.002048729170981,2.3743685803199091,-177.46041219699472
51.281574742409141,1.0021016509913143,2.3741934982111408,-177.57735375658677
53.524071464730852,1.0021259508765057,2.3738017693963847,-177.65508532174985
55.864630533516944,1.0019988448283133,2.3742869140985792,-177.74545334394975
58.307540126180562,1.0019983339200988,2.3735487491829872,-177.87810338960298
60.857275938241592,1.0019393689135312,2.3742150685760905,-177.98023802338682
63.518509383322929,1.0022373166139529,2.3733414352239595,-178.05254758915797
66.296116151725585,1.0020781888102894,2.3743859105250507,-178.14664776899397
69.19518514326262,1.0021188654043147,2.3739277442138254,-178.22196421732798
72.221027790717258,1.0022104571097386,2.372354880041406,-178.2995369112175
75.379187791007922,1.0020661022679991,2.37397326599317,-178.37145977618866
78.675451261888043,1.0022283620148573,2.3724707025477527,-178.412213184634
82.115857342789155,1.0019531479666586,2.3736687278487594,-178.50636815146993
85.706709259229257,1.0020518295994261,2.3738551551939326,-178.56018999563122
89.45458587105766,1.0022549793492439,2.3739282537326782,-178.62153377753532
93.366353725694211,1.0021444077954387,2.3733047723626322,-178.67233080114141
97.449179638445557,1.002285220268615,2.373963348736186,-178.75113182927743
101.71054382294734,1.0021914008760897,2.3732264978842963,-178.7986832689046
106.15825359578899,1.0021335106868183,2.3722372726613847,-178.83009881655556
110.80045768042854,1.0020845698125274,2.3735129748056818,-178.88161648547884
115.64566113660538,1.002070747298921,2.374972607380418,-178.96914323453646
120.70274094260255,1.0020626387966878,2.3736462752820251,-179.00168300337486
125.9809622589069,1.0020522919994759,2.3749073236542135,-179.03236893805101
131.48999540306488,1.0020620659591248,2.3721704463337097,-179.09120105845216
137.23993356683229,1.0019537473534106,2.37201044302723,-179.12621485390724
143.24131130808104,1.0021009843390074,2.3721520875455613,-179.1533626488241
149.50512385133743,1.001916570892206,2.3732434476367952,-179.20665929792983
156.04284723231748,1.0020027848344299,2.3729166108323447,-179.27503415731266
162.86645932336455,1.0020437435000669,2.3741798699699816,-179.28179366377938
169.98846177830768,1.0021544240141034,2.3723055461659355,-179.30073777402657
177.42190293695302,1.0022391369451527,2.3728362114022605,-179.33818038017702
185.18040173116373,1.0021546575917792,2.3718005747923776,-179.40563400445356
193.27817263633332,1.0020015762579881,2.3726661156625664,-179.43333127114494
201.73005171396414,1.0021684538819255,2.37320183160924,-179.39792069725007
210.55152379306242,1.0019183932283302,2.3748317467965281,-179.48948032552991
219.7587508401547,1.0023613145974579,2.3727840684727335,-179.49656426365755
229.36860156989499,1.0020197937284419,2.3746246303948961,-179.50927561818625
239.39868235051961,1.0023851473677727,2.3714005689396029,-179.55721009573756
249.86736946077002,1.0020548013419392,2.3740062041894592,-179.56425269769466
260.79384275737772,1.0021253132677614,2.3738875649561599,-179.63146569049863
272.19812081480387,1.0020584043747642,2.3733856268993123,-179.61291042677334
284.10109760160213,1.0023410328005309,2.373423218060192,-179.62631289809053
296.52458076060748,1.0021328490624035,2.3740854289322511,-179.64643263791987
309.49133156308631,1.0018668206020795,2.3718596725688021,-179.71121047874186
323.02510661003788,1.0020921137850418,2.3738930992098153,-179.71849058548233
337.15070135706492,1.0021417515632487,2.3737680945564614,-179.70400947753191
351.89399554253873,1.001882267526095,2.3744603514161051,-179.74963514514752
367.28200060230228,1.0021106344250628,2.3744710527400206,-179.78813829156292
383.34290915777478,1.0018650878166333,2.3725993856215317,-179.7706856967813
400.10614666812103,1.002165501638965,2.3727495720555565,-179.79737125139536
417.60242534113235,1.0019784592670722,2.3756973950422706,-179.79193890275991
435.86380040157258,1.0020689956402402,2.3716740882100433,-179.83474925782045
454.92372882009079,1.0017573731682392,2.3742562028209093,-179.81573206357811
474.8171306103016,1.0022673388510044,2.372723747747798,-179.85702675698801
495.58045280631922,1.0023912531105714,2.3747888021446566,-179.87994195705943
517.25173623798503,1.0016651640744665,2.3716341093183075,-179.86774959787274
539.87068522610321,1.0018791718112072,2.3747269688193726,-179.89603874880385
563.47874032539244,1.0020156603348804,2.3734090981389393,-179.93438312801524
588.11915424842152,1.0019945296638562,2.3732025484592061,-179.96535825398649
613.83707110962177,1.0018798430697942,2.371674216415232,-179.98561248572003
640.67960913458182,1.0019854068366041,2.3721622191757157,-179.99645870318011
668.69594698612866,1.0019923867222846,2.3728551429641938,-179.96087144693411
697.93741386538386,1.0022776066212085,2.3736702978102682,-179.98303355902908
728.45758355285159,1.0019024649576411,2.3711085409404484,-179.95811476040831
760.31237256183113,1.0019117445078376,2.3755656197828241,-179.99818231839228
793.56014258400603,1.0023887923126347,2.3725404958363323,179.96147135957347
828.26180741486701,1.001769877468532,2.3740934237425622,179.99271385268784
864.48094455489934,1.0020117672973583,2.373779394737539,179.95184559850813
902.28391169098438,1.0019014414483829,2.3717979780363581,179.92602903070542
941.73996827142707,1.0018600476740054,2.3749004993426399,179.94428428006776
982.92140239734908,1.0019767785141422,2.3735186981069321,179.90550366564605
1025.9036632629286,1.0022780100689785,2.3731867268550544,179.87269727132303
1070.7654993871317,1.0020820340517589,2.3722865823888997,179.88039437418186
1117.5891028901872,1.0016418056929728,2.3732885964686976,179.85948651074875
1166.4602600791475,1.0021062036818151,2.3704748332651517,179.92251596000429
1217.4685086184199,1.0012826018046355,2.3710041757274682,179.79987103745199
1270.707301573211,1.001804093975839,2.3737956337846455,179.87178245907455
1326.2741786264571,1.0016113012549595,2.3742575943989035,179.79671725803169
1384.2709447829031,1.0018983094552196,2.3722179667002652,179.81646579738884
1444.8038568877587,1.0014642878045699,2.3718130333036016,179.77888885027787
1507.9838183016432,1.0019219355004674,2.3739259662052348,179.79508474502245
1573.9265820884807,1.0020524554583956,2.3722598303767821,179.75065659254659
1642.7529630886263,1.0017579442039655,2.3736856880387065,179.74004184151539
1714.5890592657609,1.0016228514014376,2.3751034944018277,179.66059372373982
1789.5664827330709,1.0018483666339981,2.3740388845094711,179.74851179350202
1867.8226008820134,1.0014819419852103,2.3730326237161847,179.75041921679616
1949.5007880553992,1.0015630833311984,2.3733221221301477,179.67794135196195
2034.7506882259288,1.0016360878149919,2.3726990594081605,179.64288369147241
2123.7284891614199,1.001432421539038,2.3748030653545911,179.62645418449733
2216.5972085790249,1.0015936613400742,2.3735470551957585,179.66720151173001
2313.5269928127236,1.0013307505937132,2.3723062233079135,179.65889863799552
2414.6954285412594,1.0022394524010805,2.372744790633984,179.60215473273658
2520.2878681476632,1.0017581629802623,2.3719310313848103,179.61231935250402
2630.4977693064616,1.0012672967256606,2.3782232349266739,179.55990809784998
2745.5270494207089,1.0013303735314978,2.3748265982229149,179.6454036215026
2865.5864555582539,1.0016693211612759,2.3751814209729467,179.52052670693274
2990.8959505649418,1.0009255953522433,2.3748984193656457,179.53431975604525
3121.6851160622455,1.0012561835201448,2.3721578733987956,179.46757484369567
3258.1935730675846,1.0011172708887104,2.3773328311598472,179.47251036140696
3400.671421007994,1.0010099947120461,2.3789424402592179,179.44651738737173
3549.3796959314864,1.0014018037909553,2.3782478178845334,179.39823802821081
3704.5908487555316,1.0015111243955332,2.3766190952895641,179.40326561441503
3866.5892444289634,1.0008114308347065,2.3740778615660378,179.44390730957218
4035.671682921748,1.0010502473425411,2.3802105619672687,179.4157478565422
4212.1479429971732,1.000746975499478,2.3740280291922322,179.33097325447241
4396.3413497627016,1.0014028816481444,2.3800124443137158,179.37054249008511
4588.5893670393125,1.0008923444309947,2.3750866287668795,179.31588750397447
4789.2442156346024,1.0009932354173889,2.3718747730884489,179.29081309832969
4998.6735186524238,1.000337881277221,2.3734106323543496,179.19502926568211
5217.2609750213196,1.0007160353897857,2.3764779151945281,179.20720010911418
5445.4070624757469,1.000483459793478,2.3774647556259367,179.23518224615646
5683.5297712780384,1.0000937706297794,2.3784061408786088,179.18346750619577
5932.0653700253397,0.99998890083667968,2.3803652796062118,179.12368414833705
6191.469204944613,1.0007177308285748,2.3779287958196562,179.13048839414125
6462.2165341400678,0.99926417854723881,2.3794104618539249,179.11725799009781
6744.8033983214873,1.000002282796457,2.3816410533099956,179.07799854859527
7039.7475296087086,1.0004321762674493,2.3795745275643942,179.03217066222777
7347.589300077294,1.0005403955407008,2.379566746639346,179.00843969282155
7668.8927117832445,0.99990375986064739,2.3807977559032159,178.98339781895413
8004.2464300806096,0.99978152180585589,2.375583845928344,178.90069696924851
8354.2648621251155,0.99895605260853726,2.3784985615609804,178.85069249019006
8719.5892825398114,0.9991576767965793,2.377400053623286,178.79158045792761
9100.8890083049973,0.99895796036682849,2.3766301351327059,178.82613060396997
9498.8626250250836,0.99989248925641083,2.3792341446575804,178.74240014670391
9914.2392668189623,1.0003347760547043,2.3823441113879529,178.68315016986418
10347.779952178778,1.0000395037565957,2.3829074656190383,178.60316343322913
10800.278978244718,1.0000635715395632,2.3812307894942748,178.69323529109857
11272.565376049992,0.99980953106395198,2.3861373726106612,178.52450317002013
11765.504429402521,1.0003441978282743,2.381587892499609,178.51707952917255
12279.999260185827,1.000428425616769,2.3818468233642589,178.47393241977116
12816.992482983771,1.0000424706484778,2.3866194780866605,178.35918948429497
13377.467932060503,0.99962095145850693,2.3856888947753223,178.42804152182947
13962.452463859634,1.0000776488061913,2.3773971853082578,178.27564953797443
14573.017838325115,1.0006266472375536,2.3855696556969601,178.23709956587081
15210.282682490571,0.99996564512927488,2.3795482370381218,178.21851486476214
15875.414539934574,1.0001166047338825,2.3816690440031492,178.08951842991317
16569.632009856796,1.0001563449260187,2.3789983001108483,178.09355077452261
17294.206979693929,1.0002057472646917,2.3803458205892292,177.92222661989371
18050.466955365959,1.0002973908044694,2.3844164878124583,177.91920176357581
18839.797493421971,1.0005332567755196,2.3787418069678332,177.87768208636618
19663.644739541443,1.0007920163560822,2.3846657033389924,177.9017836788866
20523.518078042001,1.0009826792702374,2.3853038357386964,177.77173370498411
21420.992897247579,0.99976538136100601,2.3819260758610219,177.79005647303785
22357.713475783752,0.99911023902111284,2.3848516032268328,177.63814074615021
23335.395995088133,1.0010577329670236,2.38445967840837,177.68319188538578
24355.831683655015,1.0004247806843867,2.3816631523351881,177.37023642751979
25420.890098775191,1.0004556947258278,2.3813697071060362,177.45668328212633
26532.522551782949,1.0001604789329708,2.3874605282466073,177.3765373677864
27692.765683086342,1.0012191942131035,2.3877960174639585,177.27675890284655
28903.745193530067,1.0005280901353875,2.3832288550313909,177.07793754283497
30167.679738927534,1.0014849896496423,2.3916783850474328,177.00770005656346
31486.884994897402,1.0014003086403136,2.3869080367893507,176.91199837662015
32863.777899451423,1.0017622785452782,2.378423232632441,177.01177792921692
34300.881081107116,1.002192750050398,2.3888246077497031,176.75557074191855
35800.827480637628,1.000902367301608,2.3847927844705814,176.64432588313846
37366.365174926555,1.0013044471090076,2.3804388107588661,176.52426447030189
39000.362411765564,1.001565983786233,2.3910860689369349,176.48855206989785
40705.812864819192,1.0032580984991875,2.3880163221105088,176.30229201612821
42485.84111838432,1.0023607172898146,2.378326056861058,176.30711304489967
44343.708391993408,1.0025716781540905,2.3813034390917456,176.13935123417406
46282.818515349303,1.0031297062214701,2.3782457175110507,176.05469940795993
48306.724164538537,1.0029197398956706,2.3834523780111554,175.952342112233
50419.133370948766,1.0019647813453145,2.3782322315661464,175.62340275995922
52623.916314814822,1.0028392242079951,2.3821414670246202,175.6558188322835
54925.112415840857,1.0034748407034331,2.3977917270402869,175.6136585170874
57326.937733888641,1.0036263337616187,2.3879048466713262,175.4720029134433
59833.792693291296,1.0028423947952583,2.3869430825835858,175.31361261544606
62450.270144944574,1.003026267880555,2.3878387914925585,175.07841505665499
65181.163780945426,1.0049651762258958,2.3781137901869491,174.93860263156293
68031.476917195687,1.004852702115409,2.386024483868892,174.79145241099289
71006.431660060771,1.0033979311825891,2.3871491213353417,174.73532321092677
74111.478473877985,1.0038379067672945,2.3846112788255471,174.62362597296413
77352.306166843715,1.0061926272335768,2.3788147952350598,174.38092437625079
80734.852313573618,1.0056844392435249,2.3910426561760865,174.30723401255233
84265.314133432606,1.0055563656176794,2.3857965747755934,174.0484735028283
87950.159844564128,1.005746971769151,2.3849923741097334,173.77094791582033
91796.140514420607,1.0047792210916526,2.3862135972234229,173.69028515106442
95810.30242850745,1.0045111250605228,2.3889613022578375,173.59296903030702
100000,1.0066482142255446,2.3860107541789954,173.34370865386597
