#Digilent WaveForms Network Analyzer - Bode
#Device Name: Alan
#Serial Number: SN:210321A3716A
#Date Time: 2024-03-14 17:11:09.335
#Start: 10 Hz
#Stop: 1e+07 Hz
#Steps: 500
#Wavegen: Wavegen1
#Amplification: 1 X
#Settle: 10 ms
#MinPeriods: 16
#Channel: Channel 1
#Range: 5.42113 V
#Offset: 0.000260719 V
#Relative: no
#Channel: Channel 2
#Range: 5.45542 V
#Offset: 8.94103e-05 V
#Relative: yes

Frequency (Hz),Channel 1 Magnitude (X),Channel 2 Magnitude (X),Channel 2 Phase (°)
10.000000000000021,0.99706215409662935,11.009209637547995,-148.47965256469962
10.280732238308667,0.99606231841003023,11.154621917263592,-148.665460910934
10.569345535579894,0.99625479464676958,11.204792527702788,-149.11376461925047
10.866061138546003,0.99480604082634505,11.361408341941466,-149.1746834342205
11.171106505048265,0.99817741724539411,11.490313160944641,-149.39240298624284
11.484715478402913,0.99624167739553238,11.659244566959353,-149.58118228520374
11.807128466661913,0.99601115075450208,11.830387526622257,-149.67466287751839
12.138592626906314,0.99618600768377263,11.989971896331811,-149.83408161538924
12.479362054713141,0.99615245291506138,12.137958283039918,-150.1398266995113
12.829697978941502,0.99705123684985797,12.28284930845853,-150.3520675888189
13.189868961986718,0.9957405329185357,12.458326291462518,-150.41136313060667
13.560151105656375,0.99639242448722865,12.621155994462926,-150.77145634862646
13.940828262825814,0.99604442744723598,12.741689759879618,-151.02354276218622
14.332192255035768,0.99901895630922988,12.877774223280772,-151.32571883914568
14.734543096198374,0.99531700280453361,13.038899623401237,-151.69843844385656
15.148189222583504,0.99789899811582494,13.169939294152305,-151.98436222687349
15.573447729261384,0.99627416192998552,13.324806166758657,-152.36218739760903
16.01064461318321,0.99525639766416907,13.466441511164014,-152.68641428799972
16.460115023085532,0.99607788322263346,13.593345171418406,-153.03856277294935
16.922203516410423,0.99763547860723079,13.733055306826305,-153.29958173226137
17.397264323438058,0.99630998192542852,13.893752666526606,-153.72109214441434
17.885661618834654,0.9963886907128976,14.02892606795635,-154.06021977857256
18.387769800823307,0.99635208653648044,14.157636796170943,-154.41007298312846
18.903973778192274,0.99729275876069334,14.286603923823119,-154.93794109356742
19.434669265360263,0.99617610913510724,14.436645994865946,-155.10251236339138
19.980263085725547,0.99564249027824114,14.591486591346332,-155.65534832904603
20.541173483530685,0.99459450447721265,14.722142882171537,-155.95443332170606
21.117830444482465,0.99835981808736196,14.797783050544616,-156.36903909471852
21.710676025372717,0.99514878084798875,14.960166506246013,-156.77726981097175
22.320164692952346,0.99615641491367546,15.03663060827806,-157.13501050331743
22.946763672319406,0.99626744932068911,15.184768622718478,-157.44278799262554
23.590953305086387,0.99713535166456535,15.282300389259689,-157.94684288777654
24.253227417603554,0.99555132593760132,15.426175856857215,-158.26826568265849
24.934093699518804,0.99736608816813965,15.477695550521839,-158.88959007486329
25.634074092965204,0.99524001884672997,15.585194354729962,-159.14577287569887
26.353705192673985,0.99727530612203419,15.717359917750496,-159.44546092049399
27.093538657320543,0.99546817958515543,15.838571916346714,-159.93477452961434
27.85414163241769,0.99637505015594108,15.918155166117335,-160.40699102756179
28.636097185081219,0.99545359073518158,16.013151143234214,-160.78736580929007
29.440004751000398,0.99679323876383663,16.090998831904798,-161.21036779487611
30.266480593956953,0.99526975821339525,16.202813751551076,-161.60126161506849
31.116158278243628,0.99743005167029342,16.280389208524909,-161.83597786302695
31.989689154345442,0.99883203143247856,16.318330435141686,-162.23589672975413
32.887742858255173,0.99828690844525825,16.414056005029252,-162.64057376513853
33.811007824806886,0.99421227703201642,16.516631866328677,-162.98087293832202
34.760191815419809,0.99753813473610953,16.596029175969132,-163.3423588210365
35.736022460657956,0.99458882812064275,16.663482650298779,-163.75722631119089
36.739247818020814,0.99472993431730605,16.754442871753579,-164.07985708438599
37.770636945393726,0.99648718382911627,16.783687397125195,-164.4863180805084
38.83098049059609,0.99516878890725824,16.887173066743369,-164.79512494187182
39.921091297480622,0.99667215235021445,16.897451069365012,-165.14187188692853
41.041805029047175,0.99434518712622189,17.010246065876135,-165.53749701729089
42.193980808050327,0.99286893233435625,17.059791815404107,-165.82823587232821
43.37850187558994,0.99739338760584639,17.028702414664323,-166.21982599291704
44.596276268191041,0.9944188193898289,17.151228880256923,-166.56069145477963
45.848237513891057,0.99607784677658517,17.187763064121249,-166.88098635578274
47.135345347869162,0.99760464858089093,17.188568158499933,-167.17962810514521
48.458586448165008,0.99616949782229935,17.287915473998765,-167.46324666453535
49.818975192051759,0.99665999883018919,17.309148397135839,-167.88738168667419
51.217554433642519,0.99656630646234434,17.346965228836776,-168.16135937514446
52.655396303327663,0.99607735079016813,17.399039206202691,-168.3350687023952
54.133603029653869,0.99660712338453006,17.468667261748184,-168.60523762449742
55.653307784276628,0.99668563208196292,17.481227543202351,-168.95733328416486
57.215675550632639,0.99553725730815201,17.560282970413922,-169.23741648203728
58.821904016999682,0.99653937972094975,17.565828020521405,-169.48319631611861
60.473224494626557,0.99580318056316042,17.594812426498521,-169.70648129315597
62.170902861638467,0.99474984457420557,17.643368979324048,-169.93437431829065
63.916240533440188,0.99636386330776006,17.676382314061829,-170.13021594694197
65.710575460362833,0.99503543194655408,17.717981556542934,-170.33252431182922
67.555283153316537,0.99620906983106039,17.742597148373356,-170.63043647425587
69.451777738237169,0.99699842406753159,17.757154279106135,-170.96693500086997
71.401513040134176,0.99593783493430488,17.800353654149532,-171.12607363285804
73.405983697572267,0.99595507140550854,17.825034573451216,-171.42325486088993
75.466726308439021,0.99484765774886053,17.882710178142133,-171.45670544709662
77.5853206078786,0.99720662651115544,17.880879359841533,-172.0202406414285
79.763390679292982,0.99689781205513461,17.875679290658066,-172.01217915361639
82.002606199341486,0.99589357424892977,17.952700142697381,-172.23363776624285
84.304683717889844,0.99538343525323403,17.933361417770502,-172.47536272465379
86.671387973892422,0.99674874734189089,17.929356536868287,-172.68204654923807
89.104533248215404,0.99392621903700629,18.003582093077121,-172.77965084603656
91.605984754437088,0.9973219887228445,17.974840813908571,-172.95756897022267
94.177660068695374,0.99646686164156439,18.022285297654356,-173.17337950017998
96.82153059967095,0.99389941828034112,18.064459357969884,-173.39733155615301
99.539623099842643,0.99254262522629133,18.104059367784654,-173.48943305030704
102.33402121916423,0.99732382659031027,18.107611985215183,-173.6106531546946
105.20686710236249,0.99434603029194546,18.109999437106694,-173.89078601446516
108.16036303107116,0.99809772631645977,18.092480262973769,-174.16788965742569
111.19677311207023,0.99621294812581052,18.132030760272968,-174.17514647700685
114.31842501291503,0.99731235861307188,18.146518372921111,-174.269512855773
117.52771174629476,0.99760714684433727,18.179402052566108,-174.50604288684789
120.82709350447784,0.99511975775744776,18.233822765625863,-174.51861395286065
124.21909954526187,0.99531549733542202,18.187689245626014,-174.66940628705026
127.70633013086447,0.99630268711935377,18.180865349625517,-174.82827403093688
131.2914585212468,0.9950160397822384,18.21127990099836,-174.91592420241932
134.97723302339443,0.99500292859766759,18.212052078132022,-174.9685929489284
138.76647909813099,0.99490003931704163,18.26427301021771,-175.24443566731341
142.66210152607383,0.99646279667577919,18.244721176897741,-175.4544767673882
146.66708663439715,0.99639425760990574,18.227464270436354,-175.58376964427478
150.78450458610541,0.99429946991914897,18.228464469974949,-175.6876073116895
155.01751173357721,0.99732543889845759,18.190805483042343,-175.70094585983071
159.36935303817762,0.99274012344492768,18.296730863954654,-175.79222975390363
163.84336455779882,0.99621926581074449,18.271360930427097,-176.02460258544818
168.44297600423187,0.99509016489218238,18.250902510008427,-175.98353936907813
173.17171337233563,0.99580579674199521,18.261680954556198,-176.32687179980309
178.03320164301158,0.99765969560286183,18.261586906354992,-176.21182586448097
183.03116756206168,0.99440157579893762,18.327665476472159,-176.3260596838914
188.16944249705594,0.99266614043239665,18.355353678591577,-176.40314404368286
193.45196537440481,0.99349378147074296,18.339319303665249,-176.63070111208097
198.88278569888118,0.99761256792664255,18.267085963177127,-176.54009738299561
204.46606665791219,0.99428555192617607,18.308588463443051,-176.88837194897343
210.20608831301627,0.99541489236079017,18.277503735964309,-176.85185616933387
216.10725088083808,0.99281956390996284,18.311105192578342,-176.86192274651381
222.17407810628868,0.99419216577919023,18.307617997368382,-176.99999812357245
228.41122073038304,0.99239522975336347,18.377729205245,-177.17151765353765
234.82346005542811,0.99313449398149323,18.415492991216901,-177.15273657732183
241.41571161030225,0.99350371639633439,18.306919841561822,-177.41283924481638
248.1930289186258,0.99761452350736746,18.285227362132634,-177.39965596256454
255.16060737271917,0.99654433721099667,18.347257176161534,-177.5154709813238
262.32378821631289,0.99543313073111073,18.368224056324443,-177.5104418934649
269.68806263906981,0.99448312621760759,18.341605573452821,-177.34740057042785
277.25907598604869,0.99283806125304452,18.324373488409186,-177.83173516917572
285.04263208534434,0.99345152198342768,18.344251216425825,-177.74292790025726
293.04469769721504,0.99368238451204971,18.382770591442885,-177.79181028005036
301.27140708811703,0.99730726734563546,18.308564168191406,-177.77688217819798
309.72906673314134,0.99392274380327161,18.35162259277995,-178.05210489937568
318.42416015046558,0.99670971856344448,18.37735084877303,-177.87599473933929
327.36335287152542,0.99805741867998976,18.309805058067258,-178.11046339966384
336.55349755070944,0.99926130108918199,18.316802856419361,-177.98681708977381
346.00163921851157,0.99722390930454852,18.351357640090477,-177.96370880237075
355.71502068213897,0.99497183640328835,18.381986091051687,-178.09692512590254
365.70108807775011,0.99617558530351336,18.391264455929271,-178.23865473202133
375.96749657854679,0.99544916874551514,18.412467529793503,-178.29714704701954
386.52211626312692,0.99551420338680052,18.35307797004986,-178.46146937818045
397.37303814856119,0.98997317176847677,18.445384991754008,-178.31892669416646
408.52858039285735,0.99358455345951935,18.384092941721551,-178.50849721050807
419.9972946715306,1.0016323985770057,18.361659008865406,-178.33913909273627
431.78797273320305,0.9931262394955811,18.384279468513874,-178.58864331478793
443.90965313921754,0.99469756540480037,18.418541021045861,-178.59260978936763
456.37162819247726,0.99265264413017862,18.410485559621144,-178.739145747782
469.18345106077993,0.99178867108263868,18.387661823646614,-178.48167529341427
482.35494310014769,0.99681205969683506,18.385306648241379,-178.72528612197596
495.89620138372214,0.99609146505510082,18.411340928330613,-178.77351757333184
509.817606442044,0.99150163638450139,18.422288844838089,-178.85398710347431
524.12983022060621,0.9936379546290206,18.415034805250915,-178.64605896165349
538.8438442608234,0.99096459290691408,18.391488975772525,-178.90351054317659
553.97092811064113,0.9972265084700902,18.371842699291687,-178.87752260622594
569.52267797128422,0.99414212826540449,18.37751656734757,-178.82653147988333
585.5110155867244,0.98894574787966349,18.407704283879262,-179.06687028097602
601.94819738272872,0.99584345558338239,18.396035349311486,-178.89617736728511
618.84682386243958,0.99523561467792721,18.380238056378108,-178.81174493726894
636.21984926575078,0.99836176719530922,18.383161720663562,-178.94935617456721
654.08059149982591,0.99702447891901924,18.356424266587677,-179.02041552618687
672.44274234842635,0.99404498956826703,18.294563539236144,-179.21911983713892
691.32037796781412,0.99867928009057183,18.360706727205496,-179.04361114760837
710.72796967734268,0.99061419561836295,18.45459454865642,-179.0624682539277
730.68039505295076,0.99945694567828547,18.475259464869289,-179.09762404990792
751.19294933209687,0.99817547466425049,18.424053119748219,-179.31472401841359
772.28135713886581,0.99604158125189379,18.365528707616701,-178.98037260138437
793.96178453822927,0.99517771172505753,18.376125478494785,-179.01072593409754
816.25085142872376,0.99285050146834875,18.495716665029637,-179.24289532929737
839.16564428301615,0.99228724117653189,18.374906545289008,-178.8785537487517
862.72372924614683,0.99755765778271022,18.523042954388838,-179.33468990555852
886.94316560147229,0.99533806611117781,18.428866380140182,-179.09690267570659
911.84251961465816,0.99817688316017794,18.425517422854256,-179.37898155281576
937.4408787663001,0.99293651303971187,18.386276917433207,-179.42007860371319
963.75786638411091,0.99600990787070309,18.404975066210007,-179.25636970509046
990.81365668586864,0.99745718282882156,18.374810391058308,-179.45002896434454
1018.6289902446886,0.99170792274521635,18.440332816754157,-179.24746425352816
1047.2251898884365,0.99542934952282502,18.337933182076117,-179.58075798591383
1076.6241770454944,0.99511183431758232,18.389534012541926,-179.42815613740447
1106.8484885494142,0.99479929718213878,18.353775436720188,-179.39481569830559
1137.9212939153163,0.99276533567857117,18.424687720095545,-179.58413128751477
1169.8664131013093,0.99892742972808568,18.384584023790126,-179.34014567324311
1202.7083347685132,1.0012503757807456,18.317695909061037,-179.31713766169713
1236.4722350537177,0.98955442332313759,18.461754742670802,-179.13276920346294
1271.1839968690304,0.99496988320300173,18.381567250481346,-179.47795622585335
1306.870229743349,0.99424939449608896,18.382320681982282,-179.65294198593975
1343.5582902208275,0.99457184195572279,18.475276383900567,-179.67465405258264
1381.2763028320121,0.98941692099682232,18.527949824747072,-179.53655414040298
1420.0531816536845,0.99497759763258076,18.48646737042931,-179.5707356196146
1459.9186524739816,1.0002559868002732,18.427063153140445,-179.47522093114708
1500.9032755797382,0.99461502861882756,18.461084455525569,-179.80126576346873
1543.0384691835648,0.99982001794504372,18.453965839610394,-179.52647909384777
1586.356533508593,0.98732551647321176,18.480195750373174,-179.79578475180111
1630.8906755493326,0.98612392146108718,18.361049437994268,-179.75605194884548
1676.6750345277026,1.0080829472847714,18.341055841925378,-179.74516995489279
1723.7447080636198,0.99144523645630589,18.382216403412635,-179.40279065216288
1772.1357790803622,0.99764964739656803,18.408930896362609,-179.39609349421409
1821.8853434651669,0.99072812016622536,18.398950784721247,179.89962902450077
1873.0315385064405,1.0101547484348585,18.353906345133339,-179.58545774295737
1925.6135721291987,0.99839526708184656,18.53833898579007,-179.47169705474042
1979.6717529513367,0.9954431653290815,18.416881864893561,-179.23346883355353
2035.2475211835779,0.99472049530934681,18.339003350593828,179.87097706623925
2092.3834803969812,0.99284753393896219,18.470137886329805,-179.65111966183989
2151.1234301821673,1.0044649139872168,18.404286385210419,-179.59161283933014
2211.5123997254932,0.9929070315514541,18.445493364065843,-179.51126975352167
2273.5966823277176,0.99544238979159794,18.501586862815586,-178.88100114223622
2337.4238708918197,0.98970546314213048,18.413551310134682,179.91515910374068
2403.0428944069695,0.99490619568214267,18.330898967845364,-179.41693992415765
2470.5040554568304,0.98954201071600156,18.447730318484854,-179.67393119866534
2539.8590687807268,1.0027565567813128,18.401899296107072,-179.92501756538337
2611.1611009174649,0.98740518795299692,18.468749077056565,-179.41386184426051
2684.4648109619652,1.0029509275647583,18.410929487477521,-179.30457828309505
2759.826392466186,0.99612340235530439,18.339491053528739,-179.39061373309363
2837.3036165162148,0.9968365396468728,18.441203712627825,-179.47548509498057
2916.955876018802,0.99012245578683677,18.471955480355451,-179.8373960391952
2998.8442312310308,0.99510161835433564,18.435906607270063,-179.94322295640799
3083.0314565682834,0.98615871499333618,18.434780744807131,179.85065881385646
3169.5820887261184,0.99647387137099597,18.24030272001853,-179.8026010100364
3258.5624761532295,0.99448054890055071,18.36213758102744,-179.43292871313994
3350.0408299131359,0.99325540864177475,18.450364845657315,-179.11509173876519
3444.0872759738272,0.99696264837811577,18.551752970963932,-179.33187875474533
3540.7739089652732,0.99346580390213668,18.442559809246063,-179.87029498666374
3640.1748474461451,0.99396200141763402,18.509663085753804,-179.5422765405786
3742.366290721985,0.98960341016042441,18.595495585256106,-179.78830503768603
3847.42657725851,0.99202975834600859,18.411049047025188,179.93298707574166
3955.4362447347053,0.99112373026320477,18.36074156091469,179.94332329328034
4066.4780917818621,0.99850771788621928,18.486336023834774,179.7729056964146
4180.6372414557618,0.99561906026984437,18.297209097947633,-179.37320983551896
4298.0012064908033,0.98801602246697229,18.642753115751603,-179.54352593431506
4418.6599563859454,0.99593993090886535,18.241317220422463,-179.79598669484059
4542.7059863740524,0.99241433653012512,18.606330490014511,-179.61335606094011
4670.2343883273397,0.99137843009547488,18.459632523857806,-179.66012300247371
4801.3429236534594,1.0019203500830094,18.504616596209498,-179.58656260088634
4936.132098237922,0.99248511004185591,18.368953058392741,179.70959034728602
5074.7052394904767,0.99681928369826989,18.531215856198425,-179.36364495879891
5217.1685755543549,0.98561813238518192,18.426425404563155,-179.77886098432623
5363.6313167392509,0.99085640244041406,18.727419785722336,-179.62241487088164
5514.2057392403076,0.99217317379609804,18.583643958478728,-179.31660972692055
5669.0072712074452,0.9885666069791349,18.657721612456292,179.98731753337046
5828.1545812308514,0.99810776288224534,18.652767848874749,-179.97226888689522
5991.7696693106309,0.98219970187703709,18.542412547742963,-179.05917582484412
6159.9779603801744,0.98923855994032062,18.446558792739896,179.69529710517756
6332.9084004551278,0.98209943091964613,18.270572524350062,-179.99644924418516
6510.6935554814681,0.99284253109093035,18.665499261813331,-179.55073398810529
6693.4697129586748,0.99116481302580706,18.670472594426389,-178.93336320710563
6881.3769864156766,1.0027681945756606,18.536179317110353,179.5178923119127
7074.5594228198788,0.99055318828015237,18.70552039821462,-179.95148863364551
7273.1651130014698,0.99346473242510835,18.113270185579186,-179.605067423001
7477.346305177588,0.98848100519377258,18.376118989923899,-179.36476814243633
7687.2595216637437,0.99977250090001213,18.371461500874997,-179.86958482268278
7903.0656788613478,0.99113432893160514,18.38602715759605,-179.91676083649924
8124.930210614064,0.99663618323241643,18.476805257513455,179.70815124853294
8353.0231950267789,0.99068455003220868,18.528848881017847,179.74709422188766
8587.5194848451883,0.99438430871859018,18.334474213865487,-178.97833792244418
8828.5988414951498,0.99101208124264573,18.876730142846231,179.15895049114093
9076.4460728853755,0.98796815251110703,18.735120591926037,-179.92955952713504
9331.2511750782505,1.0021412279192525,18.185536854738878,-179.76257037859165
