#Digilent WaveForms Network Analyzer - Bode
#Device Name: Alan
#Serial Number: SN:210321A3716A
#Date Time: 2024-03-12 16:08:02.695
#Start: 9.892 Hz
#Stop: 1e+07 Hz
#Steps: 100
#Wavegen: Wavegen1
#Amplification: 1 X
#Settle: 10 ms
#MinPeriods: 16
#Channel: Channel 2
#Range: 5.45542 V
#Offset: 8.94103e-05 V
#Relative: yes

Frequency (Hz),Channel 2 Magnitude (X),Channel 2 Phase (°)
9.8920000000000083,11.124887411673967,0.00011991287055934663
11.374643749620471,11.12582971253066,-0.0079480838915699792
13.079510759278199,11.123886005656978,-0.0059302592156313949
15.039908542874784,11.125002957813031,-0.0083947554788750267
17.29413684816765,11.124135809366772,-0.0086444769295006552
19.886235908318913,11.126805058177967,-0.013559013176504209
22.866846843715905,11.127376085476325,-0.016315973300006448
26.294201023493937,11.127152657519522,-0.011925352790427723
30.235257715643819,11.126583213745793,-0.02082645647743675
34.767012251659168,11.125976606558783,-0.017716428948382656
39.978000262971392,11.126602383841639,-0.020480542147961245
45.970027377025147,11.124652673037785,-0.014402801617443117
52.860158165584373,11.12577580517425,-0.032986346228383923
60.783003202801588,11.125768806002874,-0.021082083365875803
69.89334891466919,11.127290985138746,-0.036934768942231244
80.369181598492119,11.125083389432604,-0.043142264733162961
92.415164691811768,11.125865394669148,-0.056503744209038587
106.26663722521837,11.127487382085222,-0.064062893871891902
122.19421157571956,11.125570658371398,-0.078265675158831982
140.50906034568933,11.125043535558966,-0.087742745105373388
161.56899565569515,11.12649622244852,-0.095235748164171241
185.78545962065428,11.125940246451551,-0.10780588923364576
213.63156258031134,11.126228637860665,-0.12203099473339307
245.65132612472564,11.124017946422425,-0.14597133139693597
282.47031149318582,11.124379702073426,-0.17763809968403166
324.80784099063055,11.124992269045608,-0.19529381961808667
373.49105118800901,11.125566234328906,-0.2072576055754638
429.47105246005486,11.126068406041853,-0.24715758281836031
493.84151056487008,11.128919777431676,-0.29158293592246309
567.86001328849727,11.127894663275805,-0.33439233579341021
652.9726395886978,11.124221638922014,-0.37294916496060182
750.84221123845248,11.125497975307406,-0.42150691912902971
863.38077891373541,11.124350780708975,-0.47740479598836316
992.78697739724487,11.131932570877076,-0.57719762693886878
1141.5889796963377,11.126509368933291,-0.66246961128646831
1312.693889257841,11.126983476293796,-0.74892884119256564
1509.4445352417788,11.129148835460986,-0.87531618807001621
1735.6847804474976,11.125858061674963,-0.99590411027398318
1995.8346177950395,11.131613563701087,-1.151300838224941
2294.9765225008559,11.131574853938728,-1.3331840306495053
2638.9547469864606,11.127986413189198,-1.5516153562598163
3034.4894984169855,11.13212709109691,-1.7814820377539249
3489.3082295246395,11.131839030790276,-2.0409199847595829
4012.2966077094252,11.132474026938976,-2.3530883057611049
4613.6721118586129,11.131761973904625,-2.7203781149318118
5305.1836483977831,11.128029564031941,-3.1542175046548451
6100.3410864169491,11.126320032845145,-3.6340278290732826
7014.6791962358921,11.118189998095403,-4.1825171138942778
8066.0611479030895,11.11112945433648,-4.8370177373323315
9275.0274989943809,11.105598052531597,-5.6017659387108267
10665.197489789158,11.08862321985835,-6.4610439899239438
12263.730485816615,11.065379201902772,-7.421728618273022
14101.856582847151,11.0311151326708,-8.5441456515835199
16215.486740611253,10.992444654901613,-9.8381311567127447
18645.914365259512,10.936191314109651,-11.27872993490783
21440.622047185374,10.866711966592634,-12.920583407626637
24654.209215223593,10.772718112131441,-14.79791816884287
28349.458830547766,10.656740347710178,-16.948037522146393
32598.563959968909,10.504056317488812,-19.357208375345877
37484.538191858388,10.307895525091245,-22.029925748088324
43102.837449598868,10.061755508536566,-25.063859613649257
49563.224887483433,9.7549795700855277,-28.217280341555465
56991.915303017377,9.3987021592955919,-31.81499277976107
65534.040960408885,8.9786756298412715,-35.581819057350245
75356.486999361805,8.4709157632590291,-39.438453623196132
86651.151823761262,7.9283089472491426,-43.395415200648927
99638.696167565577,7.3321303743079937,-47.423342524184591
114572.85408236284,6.7196119786492119,-51.120369528228011
131745.39006915945,6.0936079365039042,-54.830518073662262
151491.7992005132,5.4911804930456993,-58.093353862691721
174197.86159471032,4.9208480326729678,-61.019758045962661
200307.17929493744,4.3724019679068817,-63.819086642697293
230329.84279935987,3.8761076555096392,-66.05038990736287
264852.39655770326,3.4291194581088811,-67.918901312034677
304549.29812748515,3.02871478391878,-69.615984716336371
350196.09486424341,2.6765469497666903,-70.846024478867548
402684.57557511714,2.3581013213686308,-71.839862500247406
463040.19314942166,2.0855221121691669,-72.601195308090027
532442.09854732291,1.8468907032482236,-73.111612157407308
612246.17754509847,1.6416014998017889,-73.446832433030693
704011.54029947135,1.4638366991179828,-73.737451874952683
809530.98125031032,1.3122202071684486,-73.903238823826996
930866.00444833771,1.1815336094978033,-74.140835603228894
1070387.0985879952,1.0699498099170668,-74.593657848344137
1230820.0485875795,0.97549947725615394,-75.242193772277176
1415299.1884931521,0.89384233866971097,-76.221968069881655
1627428.6360934654,0.82298781680409272,-77.836412525051401
1871352.705569539,0.75991581173074563,-80.204763496619279
2151836.8738113511,0.70168665767501071,-83.487204215880936
2474360.8822180699,0.64617603286003511,-88.139699294692278
2845225.7928858809,0.58823353861094763,-94.27743016453627
3271677.0907105077,0.52126861719415707,-102.38683663293489
3762046.2364159641,0.44261609948001629,-112.1216948336987
4325913.4359919196,0.34989539697668071,-122.62720530015642
4974294.8065208904,0.25286732891496566,-131.36200082661981
5719857.5950022591,0.17369596809782575,-134.56494753982335
6577167.6548434729,0.12496577730766645,-131.37774746154065
7562974.0148980143,0.098530499306256458,-128.05405883110831
8696536.1005966198,0.077721415159784896,-128.64374852629012
10000000,0.056826994934727086,-130.71137355603477
