#Digilent WaveForms Network Analyzer - Bode
#Device Name: Alan
#Serial Number: SN:210321A3716A
#Date Time: 2024-03-14 17:11:09.335
#Start: 10 Hz
#Stop: 1e+07 Hz
#Steps: 500
#Wavegen: Wavegen1
#Amplification: 1 X
#Settle: 10 ms
#MinPeriods: 16
#Channel: Channel 1
#Range: 5.42113 V
#Offset: 0.000260719 V
#Relative: no
#Channel: Channel 2
#Range: 5.45542 V
#Offset: 8.94103e-05 V
#Relative: yes

Frequency (Hz),Channel 1 Magnitude (dB),Channel 2 Magnitude (dB),Channel 2 Phase (°)
10.000000000000021,-0.025555362556530511,20.83512283289107,-148.47965256469962
10.280732238308667,-0.034269783836546545,20.949097091628261,-148.665460910934
10.569345535579894,-0.032591509485026045,20.988076387599154,-149.11376461925047
10.866061138546003,-0.04523172398126929,21.108643383175334,-149.1746834342205
11.171106505048265,-0.015845196644047457,21.206637305213633,-149.39240298624284
11.484715478402913,-0.032705873548603027,21.333408245116221,-149.58118228520374
11.807128466661913,-0.034715988874596856,21.459979419890985,-149.67466287751839
12.138592626906314,-0.03319125224141576,21.576363302873851,-149.83408161538924
12.479362054713141,-0.033483826042151096,21.682912810598111,-150.1398266995113
12.829697978941502,-0.025650468482842619,21.785982475195009,-150.3520675888189
13.189868961986718,-0.03707627975927718,21.90919402269687,-150.41136313060667
13.560151105656375,-0.031391660765640171,22.02198269091063,-150.77145634862646
13.940828262825814,-0.034425798496581159,22.104540529733455,-151.02354276218622
14.332192255035768,-0.0085254198169180413,22.196816133024193,-151.32571883914568
14.734543096198374,-0.040771538000791176,22.304818840726014,-151.69843844385656
15.148189222583504,-0.018268268055178272,22.391675462370927,-151.98436222687349
15.573447729261384,-0.032422656646975315,22.493218003023753,-152.36218739760903
16.01064461318321,-0.04130044043739018,22.585056983150785,-152.68641428799972
16.460115023085532,-0.034134056196091542,22.666526898764204,-153.03856277294935
16.922203516410423,-0.020562291445031806,22.75534338170624,-153.29958173226137
17.397264323438058,-0.032110370183945053,22.856391267880916,-153.72109214441434
17.885661618834654,-0.031424209399833467,22.940488530172466,-154.06021977857256
18.387769800823307,-0.031743307438391474,23.019815332561713,-154.41007298312846
18.903973778192274,-0.023546686309292325,23.098580093763218,-154.93794109356742
19.434669265360263,-0.033277559545253334,23.18932614290679,-155.10251236339138
19.980263085725547,-0.037931552244973139,23.28199080775169,-155.65534832904603
20.541173483530685,-0.047078894873290533,23.359420567107545,-155.95443332170606
21.117830444482465,-0.014258135246350404,23.40393311731296,-156.36903909471852
21.710676025372717,-0.042239694212997614,23.498728544822093,-156.77726981097175
22.320164692952346,-0.033449279709236772,23.543010618505793,-157.13501050331743
22.946763672319406,-0.032481179875000342,23.628163575211229,-157.44278799262554
23.590953305086387,-0.024917726619953888,23.683774638676308,-157.94684288777654
24.253227417603554,-0.038726897626049736,23.765165559364995,-158.26826568265849
24.934093699518804,-0.022908049640599858,23.794125994905208,-158.88959007486329
25.634074092965204,-0.041443384277430467,23.854244450076166,-159.14577287569887
26.353705192673985,-0.02369869084196213,23.927591967091129,-159.44546092049399
27.093538657320543,-0.039452355151271538,23.994320417784113,-159.93477452961434
27.85414163241769,-0.03154312000614172,24.037854675569356,-160.40699102756179
28.636097185081219,-0.03957965009847686,24.089536056820929,-160.78736580929007
29.440004751000398,-0.02789832977987864,24.131660066220345,-161.21036779487611
30.266480593956953,-0.041183839853427356,24.191808797841574,-161.60126161506849
31.116158278243628,-0.022351020368619082,24.233295663513502,-161.83597786302695
31.989689154345442,-0.010150775125968197,24.25351446103295,-162.23589672975413
32.887742858255173,-0.014892483923790122,24.304318218193515,-162.64057376513853
33.811007824806886,-0.050417565554985472,24.358429780990434,-162.98087293832202
34.760191815419809,-0.021409854901682911,24.400083793024535,-163.3423588210365
35.736022460657956,-0.04712846718359958,24.435315472917331,-163.75722631119089
36.739247818020814,-0.04589625354678855,24.482599820094325,-164.07985708438599
37.770636945393726,-0.030565650822041754,24.497747640335866,-164.4863180805084
38.83098049059609,-0.042065060981262732,24.55113908464768,-164.79512494187182
39.921091297480622,-0.028953520636337007,24.55642395026382,-165.14187188692853
41.041805029047175,-0.049256480263179518,24.614211921021798,-165.53749701729089
42.193980808050327,-0.062161570291497527,24.639474541351206,-165.82823587232821
43.37850187558994,-0.022670306788896123,24.623631120589472,-166.21982599291704
44.596276268191041,-0.048613305191941097,24.685904851184496,-166.56069145477963
45.848237513891057,-0.034134374008949676,24.704387164777746,-166.88098635578274
47.135345347869162,-0.020830716485906797,24.704794012202939,-167.17962810514521
48.458586448165008,-0.033335205300298695,24.754852609588781,-167.46324666453535
49.818975192051759,-0.029059437890109507,24.765514025881448,-167.88738168667419
51.217554433642519,-0.029876005046049425,24.784470159309105,-168.16135937514446
52.655396303327663,-0.034138699056803098,24.810505334657527,-168.3350687023952
54.133603029653869,-0.029520259503578075,24.845195451751035,-168.60523762449742
55.653307784276628,-0.02883604703151384,24.851438516220306,-168.95733328416486
57.215675550632639,-0.038849643106874415,24.890630198940563,-169.23741648203728
58.821904016999682,-0.030110696769325047,24.893372528923159,-169.48319631611861
60.473224494626557,-0.036529818716227153,24.907692826014873,-169.70648129315597
62.170902861638467,-0.045722400767850696,24.931630334090443,-169.93437431829065
63.916240533440188,-0.031640641791903679,24.947867722810571,-170.13021594694197
65.710575460362833,-0.043229086092596007,24.968284905439507,-170.33252431182922
67.555283153316537,-0.032990172376856919,24.980343837141458,-170.63043647425587
69.451777738237169,-0.026110563341926858,24.987467359588496,-170.96693500086997
71.401513040134176,-0.035355375854705183,25.008572617548538,-171.12607363285804
73.405983697572267,-0.035205052425014836,25.020607617652843,-171.42325486088993
75.466726308439021,-0.044868364270625266,25.048666761477051,-171.45670544709662
77.5853206078786,-0.024296884799955322,25.047777461162084,-172.0202406414285
79.763390679292982,-0.026987143397451556,25.045251086753531,-172.01217915361639
82.002606199341486,-0.035741395903153186,25.082595541722679,-172.23363776624285
84.304683717889844,-0.040191817509469645,25.07323402143253,-172.47536272465379
86.671387973892422,-0.028286029245070555,25.071294070661434,-172.68204654923807
89.104533248215404,-0.052917057614319252,25.107178467047326,-172.77965084603656
91.605984754437088,-0.023292112612082628,25.093301058764904,-172.95756897022267
94.177660068695374,-0.030742791161716892,25.116197208146289,-173.17337950017998
96.82153059967095,-0.053151271732755259,25.136499366390922,-173.39733155615301
99.539623099842643,-0.065016663527450863,25.155519302206756,-173.48943305030704
102.33402121916423,-0.023276106247589717,25.157223594876704,-173.6106531546946
105.20686710236249,-0.049249114972522601,25.158368736307164,-173.89078601446516
108.16036303107116,-0.016538674811602264,25.149962150559023,-174.16788965742569
111.19677311207023,-0.032956357813596807,25.168928943013704,-174.17514647700685
114.31842501291503,-0.023375983694318613,25.175866255242376,-174.269512855773
117.52771174629476,-0.020808964769491057,25.191591890654415,-174.50604288684789
120.82709350447784,-0.042493018180615606,25.217554582064558,-174.51861395286065
124.21909954526187,-0.040784675873860088,25.195550505050242,-174.66940628705026
127.70633013086447,-0.03217396696969374,25.192291007447594,-174.82827403093688
131.2914585212468,-0.043398366336335863,25.206809387515776,-174.91592420241932
134.97723302339443,-0.043512819820465953,25.207177670426788,-174.9685929489284
138.76647909813099,-0.044411039433847346,25.232047805325678,-175.24443566731341
142.66210152607383,-0.030778224267993821,25.222744613799563,-175.4544767673882
146.66708663439715,-0.031375680830196657,25.214525112041436,-175.58376964427478
150.78450458610541,-0.049655842325033075,25.215001721641606,-175.6876073116895
155.01751173357721,-0.023262064349725744,25.19703859819716,-175.70094585983071
159.36935303817762,-0.063288498874232643,25.247469997259103,-175.79222975390363
163.84336455779882,-0.032901274670771738,25.235417933982784,-176.02460258544818
168.44297600423187,-0.042751322954260769,25.225686905083009,-175.98353936907813
173.17171337233563,-0.036506999135786013,25.230815021126741,-176.32687179980309
178.03320164301158,-0.020351449305837693,25.230770288421031,-176.21182586448097
183.03116756206168,-0.048763923043418977,25.262142986909154,-176.3260596838914
188.16944249705594,-0.063935830651033435,25.275255141747923,-176.40314404368286
193.45196537440481,-0.056696938096787712,25.26766424047694,-176.63070111208097
198.88278569888118,-0.020761765032766281,25.233385450554184,-176.54009738299561
204.46606665791219,-0.049777426415851353,25.253097256139696,-176.88837194897343
210.20608831301627,-0.039917321634324307,25.238337626944727,-176.85185616933387
216.10725088083808,-0.062593469541340235,25.254291150974414,-176.86192274651381
222.17407810628868,-0.050593268363505181,25.25263683918017,-176.99999812357245
228.41122073038304,-0.06630663924144424,25.285836958676164,-177.17151765353765
234.82346005542811,-0.059838674829870653,25.303666992191459,-177.15273657732183
241.41571161030225,-0.056610079741562937,25.252305598932736,-177.41283924481638
248.1930289186258,-0.020744738441229076,25.242007296221981,-177.39965596256454
255.16060737271917,-0.030067487132857066,25.271422971443705,-177.5154709813238
262.32378821631289,-0.039758176918153643,25.281343365829564,-177.5104418934649
269.68806263906981,-0.048051626411860428,25.26874699873072,-177.34740057042785
277.25907598604869,-0.062431643173517785,25.260582700175362,-177.83173516917572
285.04263208534434,-0.057066411018260731,25.269999784677992,-177.74292790025726
293.04469769721504,-0.055048181197267933,25.28821934872278,-177.79181028005036
301.27140708811703,-0.023420325168246953,25.253085730072851,-177.77688217819798
309.72906673314134,-0.052947427624566661,25.273489384772358,-178.05210489937568
318.42416015046558,-0.028626141334823482,25.285658133732525,-177.87599473933929
327.36335287152542,-0.016889456846630825,25.253674409074481,-178.11046339966384
336.55349755070944,-0.0064186282239452833,25.256993422676686,-177.98681708977381
346.00163921851157,-0.024146349162481102,25.273363980796688,-177.96370880237075
355.71502068213897,-0.043784243733728731,25.287848663075174,-178.09692512590254
365.70108807775011,-0.033282126955139921,25.292231786887175,-178.23865473202133
375.96749657854679,-0.039618234518575213,25.30223987954578,-178.29714704701954
386.52211626312692,-0.039050786895014115,25.274178192808439,-178.46146937818045
397.37303814856119,-0.087531492105242595,25.31775448488554,-178.31892669416646
408.52858039285735,-0.05590337554474524,25.288844138954232,-178.50849721050807
419.9972946715306,0.014167273709909601,25.278238358486966,-178.33913909273627
431.78797273320305,-0.059910868326367585,25.28893226638694,-178.58864331478793
443.90965313921754,-0.046178900490989994,25.305104513303561,-178.59260978936763
456.37162819247726,-0.064053924926372102,25.301304855450468,-178.739145747782
469.18345106077993,-0.071617136756137234,25.290530156650558,-178.48167529341427
482.35494310014769,-0.027734328864511014,25.289417557122906,-178.72528612197596
495.89620138372214,-0.034015622190470517,25.301708400788666,-178.77351757333184
509.817606442044,-0.074131293880120561,25.306871747324781,-178.85398710347431
524.12983022060621,-0.055436556491463382,25.30345088055947,-178.64605896165349
538.8438442608234,-0.078837250957573268,25.292337823243791,-178.90351054317659
553.97092811064113,-0.024123710279263008,25.283054366180423,-178.87752260622594
569.52267797128422,-0.051030438636028859,25.285736458773567,-178.82653147988333
585.5110155867244,-0.096550650215234735,25.299992577237134,-179.06687028097602
601.94819738272872,-0.036178527102024557,25.294484708620736,-178.89617736728511
618.84682386243958,-0.041481821446440706,25.287022639262862,-178.81174493726894
636.21984926575078,-0.014241177712914202,25.288404155963153,-178.94935617456721
654.08059149982591,-0.025883575412919746,25.275761737162536,-179.02041552618687
672.44274234842635,-0.051879187726116577,25.246441056160194,-179.21911983713892
691.32037796781412,-0.011479209456027454,25.277787874797347,-179.04361114760837
710.72796967734268,-0.081909056355549681,25.322090161898217,-179.0624682539277
730.68039505295076,-0.0047181911389152006,25.331810926040607,-179.09762404990792
751.19294933209687,-0.015862100514595363,25.307703542089488,-179.31472401841359
772.28135713886581,-0.034450618447650218,25.28006870698357,-178.98037260138437
793.96178453822927,-0.041987182470519871,25.285078954178907,-179.01072593409754
816.25085142872376,-0.062322810057150776,25.341423277113346,-179.24289532929737
839.16564428301615,-0.067251855290051787,25.284502778832397,-178.8785537487517
862.72372924614683,-0.021239863035814946,25.354246676878411,-179.33468990555852
886.94316560147229,-0.040587725586689015,25.309972423327061,-179.09690267570659
911.84251961465816,-0.015849844120944701,25.308393850008692,-179.37898155281576
937.4408787663001,-0.061570375872149433,25.289875935593681,-179.42007860371319
963.75786638411091,-0.034726827667153015,25.298704668617855,-179.25636970509046
990.81365668586864,-0.022114758143198559,25.28445732623544,-179.45002896434454
1018.6289902446886,-0.072324343564434831,25.31537510135378,-179.24746425352816
1047.2251898884365,-0.039791170817223963,25.267007719154439,-179.58075798591383
1076.6241770454944,-0.042562178095973686,25.291414488681351,-179.42815613740447
1106.8484885494142,-0.045290604552421086,25.2745082738676,-179.39481569830559
1137.9212939153163,-0.063067909524591764,25.308002714786092,-179.58413128751477
1169.8664131013093,-0.0093212267403468326,25.289076156258261,-179.34014567324311
1202.7083347685132,0.010853841760460179,25.257416900925303,-179.31713766169713
1236.4722350537177,-0.091206311133378265,25.325459544676843,-179.13276920346294
1271.1839968690304,-0.043801294767900699,25.287650749509186,-179.47795622585335
1306.870229743349,-0.050093296597496777,25.288006763153877,-179.65294198593975
1343.5582902208275,-0.047276811111862237,25.331818880287283,-179.67465405258264
1381.2763028320121,-0.092413332181663282,25.35654731885597,-179.53655414040298
1420.0531816536845,-0.043733949589608578,25.337078571363879,-179.5707356196146
1459.9186524739816,0.002223188554650638,25.309122485153047,-179.47522093114708
1500.9032755797382,-0.046899657416377721,25.325144182137208,-179.80126576346873
1543.0384691835648,-0.0015634449664222185,25.32179424694888,-179.52647909384777
1586.356533508593,-0.11079277840023138,25.334131342937873,-179.79578475180111
1630.8906755493326,-0.12137011851761274,25.277949999292471,-179.75605194884548
1676.6750345277026,0.06992536572139979,25.268486662801202,-179.74516995489279
1723.7447080636198,-0.074625390377351719,25.287957490010818,-179.40279065216288
1772.1357790803622,-0.020438932092640066,25.300571349338973,-179.39609349421409
1821.8853434651669,-0.080910202151501645,25.295861154323251,179.89962902450077
1873.0315385064405,0.087758193342191815,25.274570225806492,-179.58545774295737
1925.6135721291987,-0.013949728816144808,25.36141638514291,-179.47169705474042
1979.6717529513367,-0.039670618077145059,25.304322046530444,-179.23346883355353
2035.2475211835779,-0.045978674480938495,25.267514597128464,179.87097706623925
2092.3834803969812,-0.062348771338563903,25.329402752387541,-179.65111966183989
2151.1234301821673,0.038695428397817366,25.298379652199536,-179.59161283933014
2211.5123997254932,-0.061828274289262027,25.317805517009596,-179.51126975352167
2273.5966823277176,-0.039677385149190059,25.344179580178078,-178.88100114223622
2337.4238708918197,-0.089880648737809654,25.302751126578976,179.91515910374068
2403.0428944069695,-0.044357291981558904,25.263675275459558,-179.41693992415765
2470.5040554568304,-0.091315264425245443,25.318858823676425,-179.67393119866534
2539.8590687807268,0.023910208179814138,25.297252994158065,-179.92501756538337
2611.1611009174649,-0.11009190543609547,25.328749617164853,-179.41386184426051
2684.4648109619652,0.025593687144053655,25.301514293809259,-179.30457828309505
2759.826392466186,-0.033737134292937378,25.267745584465207,-179.39061373309363
2837.3036165162148,-0.027521021319285834,25.315785306901503,-179.47548509498057
2916.955876018802,-0.086221793227457044,25.330257464164134,-179.8373960391952
2998.8442312310308,-0.042651349163719092,25.313289988127543,-179.94322295640799
3083.0314565682834,-0.12106365860595636,25.312759533297111,179.85065881385646
3169.5820887261184,-0.030681689759927033,25.220640833951734,-179.8026010100364
3258.5624761532295,-0.048074136920019488,25.278464741670057,-179.43292871313994
3350.0408299131359,-0.058781227452858076,25.320099170214942,-179.11509173876519
3444.0872759738272,-0.026422248152948462,25.367699054921271,-179.33187875474533
3540.7739089652732,-0.05694154304503183,25.316424011005701,-179.87029498666374
3640.1748474461451,-0.052604362155937556,25.347970275296163,-179.5422765405786
3742.366290721985,-0.090776336064912727,25.388155143089378,-179.78830503768603
3847.42657725851,-0.069505998617667417,25.301570699308233,179.93298707574166
3955.4362447347053,-0.077442510369228834,25.277804353545754,179.94332329328034
4066.4780917818621,-0.012971478710978921,25.337016857784178,179.7729056964146
4180.6372414557618,-0.038135955797190264,25.247697023246943,-179.37320983551896
4298.0012064908033,-0.10472024969338584,25.410200965818838,-179.54352593431506
4418.6599563859454,-0.035337096215232719,25.221123917683379,-179.79598669484059
4542.7059863740524,-0.066139409742841326,25.393214614602471,-179.61335606094011
4670.2343883273397,-0.075210689703062869,25.324461025402101,-179.66012300247371
4801.3429236534594,0.016663953691164,25.345601824423163,-179.58656260088634
4936.132098237922,-0.065520002131524646,25.281688086464591,179.70959034728602
5074.7052394904767,-0.027671381540356761,25.358078297133172,-179.36364495879891
5217.1685755543549,-0.12582630808991824,25.308821867003914,-179.77886098432623
5363.6313167392509,-0.079785601444372634,25.44955891107746,-179.62241487088164
5514.2057392403076,-0.068250390379356055,25.382617525652829,-179.31660972692055
5669.0072712074452,-0.099881275231586977,25.417172175614485,179.98731753337046
5828.1545812308514,-0.016451332598357054,25.414865701234955,-179.97226888689522
5991.7696693106309,-0.15600404047961131,25.36332478819493,-179.05917582484412
6159.9779603801744,-0.093979268719503531,25.318307207500727,179.69529710517756
6332.9084004551278,-0.15689081221006304,25.235043131254592,-179.99644924418516
6510.6935554814681,-0.062392538678337578,25.420792217151856,-179.55073398810529
6693.4697129586748,-0.077082481711191697,25.423106222456564,-178.93336320710563
6881.3769864156766,0.024011014312740601,25.360404442456304,179.5178923119127
7074.5594228198788,-0.082443996523940577,25.439395900434985,-179.95148863364551
7273.1651130014698,-0.056950910993279237,25.159937305938733,-179.605067423001
7477.346305177588,-0.10063343482184177,25.285075887209175,-179.36476814243633
7687.2595216637437,-0.001976256882109324,25.282874140288939,-179.86958482268278
7903.0656788613478,-0.077349627544402,25.289757945359661,-179.91676083649924
8124.930210614064,-0.029266993250712782,25.332537628833496,179.70815124853294
8353.0231950267789,-0.081292197665447444,25.356968785567648,179.74709422188766
8587.5194848451883,-0.048914748685777755,25.26536920025908,-178.97833792244418
