#Digilent WaveForms Network Analyzer - Bode
#Device Name: Alan
#Serial Number: SN:210321A3716A
#Date Time: 2024-03-14 16:30:42.272
#Start: 10 Hz
#Stop: 1e+07 Hz
#Steps: 500
#Wavegen: Wavegen1
#Amplification: 1 X
#Settle: 10 ms
#MinPeriods: 16
#Channel: Channel 1
#Range: 5.42113 V
#Offset: 0.000260719 V
#Relative: no
#Channel: Channel 2
#Range: 5.45542 V
#Offset: 8.94103e-05 V
#Relative: yes

Frequency (Hz),Channel 1 Magnitude (dB),Channel 2 Magnitude (dB),Channel 2 Phase (°)
10.000000000000021,0.0030195851905878606,2.5453795478314256,-100.57880916200644
10.280732238308667,0.01171173000668496,2.7613004523504263,-100.96313944234718
10.569345535579894,-0.0041990387684838031,2.9928875677262723,-101.28764252590834
10.866061138546003,-0.0022769549566330244,3.2362537152703452,-101.62031244391153
11.171106505048265,-0.0014361940510568202,3.4644676902836542,-102.0397802423384
11.484715478402913,0.0039057663379374785,3.6788943141204768,-102.36255000636368
11.807128466661913,0.0066583717709225079,3.9071803514511751,-102.66129313642546
12.138592626906314,0.012728488678178522,4.1053495814010397,-103.09120554829039
12.479362054713141,0.0023822872154885535,4.3494351494513319,-103.44311287103835
12.829697978941502,0.0082262634167243175,4.5701684211394058,-103.82862123700818
13.189868961986718,0.0041178231495684987,4.784461888636395,-104.20874159758215
13.560151105656375,0.0038967645940199613,5.0073424073176245,-104.57890203710781
13.940828262825814,-0.0018044255945593216,5.247090385909555,-105.05716879612237
14.332192255035768,0.005201364326971103,5.4427299427767011,-105.48578096180762
14.734543096198374,-0.0017203169879720752,5.6757259696549891,-105.89900044699006
15.148189222583504,0.0015535533773410111,5.8866690956428194,-106.32278589907841
15.573447729261384,-0.0011803231002758049,6.1038071051087179,-106.78118359202713
16.01064461318321,0.0041499061838791819,6.3260665649224617,-107.18301615544335
16.460115023085532,-0.0017443904665896441,6.5334426879902718,-107.57893229880806
16.922203516410423,0.0027703008092080429,6.7528774561474876,-108.20373351814379
17.397264323438058,-0.0022598463921599172,6.9573882279609913,-108.67463129596146
17.885661618834654,0.0095410911065165124,7.1660574348258965,-109.10790374510375
18.387769800823307,0.0018584543985315318,7.3701964595365679,-109.59507570268181
18.903973778192274,-0.0081476972093809386,7.5832555185455046,-110.2193011045886
19.434669265360263,0.0067823078339058875,7.7745682515774517,-110.61739013491183
19.980263085725547,0.0075697435984749192,7.9816316614549923,-111.21089934991615
20.541173483530685,0.005750368099934608,8.1814830282553768,-111.67719239639423
21.117830444482465,0.0045332809263568963,8.3907625457717163,-112.27484525261107
21.710676025372717,-0.0050851064201498227,8.5915653378790573,-112.8073218737587
22.320164692952346,0.0026804018914981442,8.7773992716746658,-113.42618657499881
22.946763672319406,0.005494384530928589,8.9730715188055896,-113.85474073091771
23.590953305086387,-0.0044726493000522664,9.1804304262257048,-114.48683977852733
24.253227417603554,-0.0030505062293511125,9.3587457412245048,-115.15960997408212
24.934093699518804,-0.007832305160579766,9.5451735405973128,-115.72192287661044
25.634074092965204,0.0073952113729646744,9.7186147945060313,-116.39000100519496
26.353705192673985,-0.0045583223893332766,9.9240758576372698,-116.98903431142526
27.093538657320543,0.0043490832985583318,10.08345210259394,-117.54268876155481
27.85414163241769,-0.002246754231994233,10.276441424507997,-118.26539159911331
28.636097185081219,-0.0053322927620323736,10.455791868804587,-118.81177870248763
29.440004751000398,-0.0073433432965440987,10.64063074072652,-119.46571944466041
30.266480593956953,-0.00024050308012248984,10.788563689658421,-120.12247339789275
31.116158278243628,-0.0034421791768568921,10.966518251550228,-120.77384965244519
31.989689154345442,-0.00059996449197927202,11.136239561004079,-121.36361041276166
32.887742858255173,0.0064455189634439166,11.282495703328973,-122.13484652911238
33.811007824806886,-0.009674633075744463,11.453943032367613,-122.82038091172288
34.760191815419809,-0.0033155546874010572,11.615001665906098,-123.39125368378149
35.736022460657956,-0.018133747705276426,11.77985142156202,-124.15561831435677
36.739247818020814,0.0029216584753662812,11.910339552693831,-124.87615320964065
37.770636945393726,-0.0042679765197444703,12.072401989895463,-125.44945647616072
38.83098049059609,0.00080757073973777328,12.212213982973427,-126.18812555678954
39.921091297480622,-0.0039001438485662611,12.350715863415274,-126.9639567702279
41.041805029047175,-0.0029108813722065964,12.486422470420367,-127.60634331118072
42.193980808050327,-0.0038023921685722741,12.629056289715663,-128.23307979590021
43.37850187558994,0.0041743129257572394,12.752359165961192,-128.98013038805749
44.596276268191041,0.0020034929628220208,12.886000318085939,-129.63112315715651
45.848237513891057,-0.0097659187636309035,13.014061174633405,-130.23966199306079
47.135345347869162,-0.0039977614555385113,13.137427214936064,-130.97567754232924
48.458586448165008,-0.014363341155184358,13.259260815109798,-131.68838908379212
49.818975192051759,-0.0089529850637261703,13.373964515907497,-132.22281622358724
51.217554433642519,-0.011903162337629249,13.487114411581583,-133.00448438618156
52.655396303327663,-0.010240100508251502,13.59333221736539,-133.62433625241221
54.133603029653869,-0.012110641218888293,13.710376527168187,-134.41643801094347
55.653307784276628,-0.014060689947786701,13.812707722539827,-135.10274472256472
57.215675550632639,-0.014321896258916913,13.891290750275873,-135.81453640173996
58.821904016999682,0.0061683338249710774,13.990452447038702,-136.34479910826832
60.473224494626557,-0.01321296762176692,14.103654212271428,-136.99103804077177
62.170902861638467,-0.0082779351891487506,14.185932976924152,-137.5139700533224
63.916240533440188,-0.0094333260164623164,14.277438220795254,-138.2172052677324
65.710575460362833,-0.016098825290957911,14.369272414944493,-138.86837353928505
67.555283153316537,-0.0062576770366812202,14.449706783099586,-139.32516832770068
69.451777738237169,-0.017546515082818705,14.530188933219586,-139.90452204940564
71.401513040134176,-0.0054701437614423677,14.598388124176809,-140.49640278498157
73.405983697572267,-0.0086214321738739535,14.673671551005416,-141.00339977243567
75.466726308439021,-0.016406425227623762,14.755609496319313,-141.70610871422173
77.5853206078786,-0.010242527487199945,14.823642849739226,-142.20219817838711
79.763390679292982,-0.019571723691835949,14.900023909222798,-142.6698525540377
82.002606199341486,-0.01042007333696307,14.950677815598079,-143.24731669454582
84.304683717889844,-0.01920073343232875,15.029734827353249,-143.69639030175043
86.671387973892422,-0.011363921455643954,15.082541566302021,-144.07697939232389
89.104533248215404,-0.010986903501901592,15.138825336835286,-144.47762156744727
91.605984754437088,-0.0023521991615502386,15.185043776543294,-145.02737762809977
94.177660068695374,0.0072069109330728937,15.231229650045918,-145.52575563818985
96.82153059967095,-0.020146915793080034,15.309339273765286,-145.90989842172624
99.539623099842643,-0.019156519079132253,15.355013296721538,-146.3589976026401
102.33402121916423,-0.02776674282377305,15.421673794115399,-146.6965564527024
105.20686710236249,-0.0031553346610920432,15.440428800597324,-147.10284481984917
108.16036303107116,-0.010135423603734562,15.491237810813816,-147.39178957779382
111.19677311207023,-0.0084491926234402017,15.537708971403246,-147.74019940834069
114.31842501291503,-0.020630871445200476,15.587659158859681,-147.95957746264239
117.52771174629476,-0.023808699550086004,15.630553781611258,-148.19033836534567
120.82709350447784,-0.018567544465264992,15.658486367625997,-148.52253436604411
124.21909954526187,-0.014061709769089863,15.706057151354639,-148.82666910003243
127.70633013086447,-0.018554570265308531,15.750655242831728,-149.23631113773877
131.2914585212468,-0.017366282700928666,15.778717501775521,-149.33731578087298
134.97723302339443,-0.0085599675113758288,15.826745005715727,-149.66562435288529
138.76647909813099,-0.0050927595009538614,15.851091207127094,-149.69132148591353
142.66210152607383,-0.0050635747840010441,15.884360186974714,-149.84298179990287
146.66708663439715,-0.014256683328672692,15.935238273022829,-150.06090497038332
150.78450458610541,-0.014941594523252572,15.969922454903156,-150.24589006738827
155.01751173357721,-0.027025426659203402,15.991673804041271,-150.31272337138861
159.36935303817762,-0.0093041647140077264,16.013440998781391,-150.39869652406668
163.84336455779882,-0.0080932567072087066,16.046046965842969,-150.55261893852366
168.44297600423187,-0.019488493202912942,16.097230803691495,-150.53276643979936
173.17171337233563,-0.029318532735396391,16.120636154320557,-150.61086604171311
178.03320164301158,-0.01678862301574149,16.167088292962482,-150.56914277982668
183.03116756206168,-0.013857511324327254,16.197292575604759,-150.57984578296322
188.16944249705594,-0.0026451102264190025,16.19921075064164,-150.60176586987643
193.45196537440481,-0.024814295934202802,16.267922986326482,-150.56841624521147
198.88278569888118,-0.021764645757984775,16.282034935249328,-150.58513900175791
204.46606665791219,-0.01719453225338026,16.327132920922345,-150.51408158061523
210.20608831301627,-0.013908084793764727,16.364675395393256,-150.44367750061056
216.10725088083808,-0.010920311532778556,16.396796095622406,-150.29220013538873
222.17407810628868,-0.019249519338129364,16.432671629451256,-150.13774121390591
228.41122073038304,-0.014538510928751511,16.461435883779821,-150.00671946098439
234.82346005542811,-0.041023076627754812,16.511626771343796,-149.79879940465673
241.41571161030225,-0.0094477320937644167,16.533933028226709,-149.68350799552945
248.1930289186258,-0.0092589165353410795,16.557255811491903,-149.61312670980774
255.16060737271917,-0.0042982982820053989,16.598258290218141,-149.34966294032915
262.32378821631289,-0.0025141248331079298,16.654801658206356,-149.04844185159851
269.68806263906981,-0.032742081498202319,16.677914950323157,-148.81765528748525
277.25907598604869,0.0018535950950029597,16.739272776862563,-148.48541343092421
285.04263208534434,-0.012051475591137778,16.771962131563271,-148.15875635970323
293.04469769721504,-0.02207652807824536,16.831807767865484,-147.9772211543312
301.27140708811703,-0.036938212701364284,16.866943210991479,-147.70290463290686
309.72906673314134,-0.018462931989212186,16.907169078200287,-147.2632552702683
318.42416015046558,-0.008981927715201371,16.970692101121241,-147.07332721074982
327.36335287152542,-0.016213473636958114,17.017109377394807,-146.51913093891613
336.55349755070944,-0.016668169198414032,17.081332180472593,-146.25022697396511
346.00163921851157,-0.038224848472605391,17.151934657350687,-145.85951595969388
355.71502068213897,-0.034354419207415984,17.180785917003604,-145.3906395642606
365.70108807775011,-0.046056388557037753,17.270797189020403,-144.94147634196676
375.96749657854679,-0.043890652776726852,17.315612168484403,-144.536197321049
386.52211626312692,-0.031943579535967291,17.350955297128543,-144.0973477183237
397.37303814856119,-0.0044036875587665364,17.443126506050369,-143.7370296195474
408.52858039285735,-0.025661031608476843,17.501091677872431,-143.18276337401497
419.9972946715306,-0.012047143305066505,17.561597919350543,-142.73277580209341
431.78797273320305,-0.015781775855859277,17.653512796774361,-142.2231776346612
443.90965313921754,0.010535176891597667,17.719494693019673,-141.75873279955263
456.37162819247726,-0.036674934858364247,17.799910736917102,-141.22637678930695
469.18345106077993,-0.004165291114432406,17.877049701021406,-140.56292334824309
482.35494310014769,-0.020198068313909218,17.947613970254775,-140.28074059695183
495.89620138372214,-0.012562079717586079,18.063545972826812,-139.47548012333462
509.817606442044,-0.0018381139432423832,18.136330776617122,-139.00811449934645
524.12983022060621,-0.015128982580453041,18.2484524577192,-138.50867711503602
538.8438442608234,-0.029494393281752428,18.319209433127966,-137.71092219743096
553.97092811064113,-0.035497023959502876,18.421117190581942,-137.20925282315193
569.52267797128422,-0.0067804776180701081,18.539513638292178,-136.72814831586408
585.5110155867244,-0.032367537784964089,18.630695063289643,-136.08668689155743
601.94819738272872,-0.0024180053910813851,18.714100580352127,-135.49442628351554
618.84682386243958,-0.011763319312706778,18.837066498101539,-134.77299371376105
636.21984926575078,-0.045810917892298589,18.94708546572161,-134.14828652830533
654.08059149982591,0.013523116609003343,19.049882829070359,-133.65894853107761
672.44274234842635,0.0029546662137026882,19.183464548522959,-133.07907672144086
691.32037796781412,-0.026474968498199976,19.340465303269426,-132.364341295001
710.72796967734268,-0.021051671946626761,19.411517145838857,-131.75029200923618
730.68039505295076,-0.011643917346939259,19.583100000365292,-131.3161750365129
751.19294933209687,-0.043384361838849944,19.708595877727465,-130.5686095090968
772.28135713886581,0.022286227562328613,19.82050101668402,-129.92628127741449
793.96178453822927,-0.030238740485093625,19.996065366893991,-129.43467789558173
816.25085142872376,-0.011148671796453222,20.120472529270408,-128.59977949349502
839.16564428301615,0.0068992194776582383,20.269681401600689,-127.97861920305914
862.72372924614683,-0.014607586170229879,20.382407481474157,-127.59290999415458
886.94316560147229,-0.0065046480213706709,20.550195132036976,-126.93544509206376
911.84251961465816,0.00097579340720665845,20.734349102763439,-126.38022582850624
937.4408787663001,-0.0064178507386205728,20.855816467336219,-125.68719009710441
963.75786638411091,-0.026404208734549219,21.037692682295756,-125.14694183847648
990.81365668586864,0.022322919204641637,21.171156362943631,-124.45887703364059
1018.6289902446886,-0.047556568806860128,21.381880164444528,-123.91543985390318
1047.2251898884365,-0.053686369451535938,21.558979191511014,-123.44533342408349
1076.6241770454944,-0.028149681972198901,21.683530741561583,-122.83634283596624
1106.8484885494142,0.0082079454571376449,21.882720283223595,-122.37538961758753
1137.9212939153163,-0.018017601514725295,22.05926447611607,-121.74965436127647
1169.8664131013093,-0.0063239801335082712,22.229100813654064,-121.09327936086143
1202.7083347685132,-0.0086329074660783395,22.378333853670654,-120.81252709003084
1236.4722350537177,0.026407730193545462,22.544595024110681,-120.53308354524864
1271.1839968690304,-0.0016300045297967358,22.751673106720929,-119.85913314850174
1306.870229743349,-0.019532467598406805,22.900473909035011,-119.41520322705551
1343.5582902208275,0.011454867484328696,23.142732603482216,-118.95561871567361
1381.2763028320121,-0.012977334059723695,23.343252099492581,-118.34316122783324
1420.0531816536845,-0.017477557270862691,23.515404110189209,-117.8103111458249
1459.9186524739816,-0.017581977786092266,23.740727101696947,-117.63582330056721
1500.9032755797382,-0.02310030788377446,23.905738560558326,-117.30690056296521
1543.0384691835648,-0.02415069204980682,24.153253066086478,-116.45652529383619
1586.356533508593,-0.051396133501774396,24.330681520082685,-116.43474620418861
1630.8906755493326,-0.054825566056335623,24.539771590396246,-116.21273624190867
1676.6750345277026,-0.023240539082735982,24.741997875503632,-115.60969840261689
1723.7447080636198,0.0070603657522853754,24.92012155957697,-115.17177118712846
1772.1357790803622,0.019207864039705466,25.140643934359286,-115.17792929214512
1821.8853434651669,0.010848893762647915,25.340675968452334,-114.62358367262334
1873.0315385064405,-0.018652177493360334,25.617405284948276,-114.50802706652267
1925.6135721291987,-0.030485901118591813,25.787435553691999,-113.82702791010499
1979.6717529513367,-0.028380249927603424,25.960614996861892,-113.66481151542945
2035.2475211835779,-0.033042493924422225,26.186189398085993,-113.93552402525967
2092.3834803969812,0.0036335226101666786,26.392810074742098,-113.28459819610961
2151.1234301821673,-0.02046213586617995,26.59485817229578,-113.14757098441157
2211.5123997254932,-0.060692966630043164,26.856951400806572,-112.91415181942317
2273.5966823277176,-0.045047149645297345,27.108524914059117,-112.63505424715002
2337.4238708918197,0.0018063053980731784,27.287307871298317,-112.29245475823342
2403.0428944069695,0.038278198523776938,27.446705383348728,-112.07677304211421
2470.5040554568304,0.0061644003689356255,27.724886122084804,-111.92820770991358
2539.8590687807268,-0.061886573796705147,27.943537189387271,-112.03494287213312
2611.1611009174649,0.0068048067649006828,28.201434835253888,-111.64129095089055
2684.4648109619652,0.020252864982212366,28.291901018536944,-111.56372605296572
2759.826392466186,-0.0045184997574837784,28.567959352212689,-111.59930064047114
2837.3036165162148,-0.062911849612321949,28.844230480978656,-111.49935609066267
2916.955876018802,-0.04765720162800588,29.020148250401249,-111.36666765364605
2998.8442312310308,-0.011653013338601272,29.217953042118495,-111.09410693920233
3083.0314565682834,-0.050538375743150003,29.454784592025458,-111.16326556682191
3169.5820887261184,-0.029343942909756879,29.674431381751617,-110.77115402213593
3258.5624761532295,-0.047635990026696835,29.900240910607458,-111.22941975493359
3350.0408299131359,-0.017881330968317462,30.106989647308048,-111.36048687911844
3444.0872759738272,0.029242197168838302,30.324119422743028,-111.21345052802883
3540.7739089652732,-0.019488906300194831,30.656054690896873,-110.89812605054875
3640.1748474461451,-0.021922261955899677,30.74268735018461,-111.29519165044468
3742.366290721985,-0.079340140606419002,31.006144634914754,-111.00393697878883
3847.42657725851,-0.033198026289152777,31.271599759286293,-111.49580588189311
3955.4362447347053,0.027297844429872223,31.414022014639265,-110.9585221066756
4066.4780917818621,0.008367550837493359,31.675587910609771,-111.46258943563977
4180.6372414557618,-0.047076017768321918,31.904372661582187,-111.49018254758693
4298.0012064908033,-0.027922177759964008,32.083529266085129,-111.14064427726861
4418.6599563859454,-0.021868661926267328,32.332666518687482,-111.70184017589631
4542.7059863740524,-0.032764032669042917,32.557543465097375,-112.03812534359456
4670.2343883273397,-0.031126188873865351,32.758401313782869,-112.03113807170737
4801.3429236534594,-0.050241739311788519,32.990175178433113,-112.74803956646095
4936.132098237922,-0.054517787686734945,33.242998655005039,-112.7289357772184
5074.7052394904767,-0.057009148908215582,33.503780616597027,-112.66216634474075
5217.1685755543549,-0.038059060499431294,33.688561350611074,-112.58279060460978
5363.6313167392509,0.0055181592252940585,33.899596872188475,-112.99800596185048
5514.2057392403076,-0.060382955564869709,34.013539424158274,-113.33476760485868
5669.0072712074452,-0.025273647942629131,34.249215755852866,-113.41318659865118
5828.1545812308514,-0.0052705552097711567,34.472436915273846,-114.16407952173239
5991.7696693106309,-0.035570034453915329,34.738135490946647,-114.35742113952516
6159.9779603801744,-0.0093604495102322296,35.036736182645534,-114.22407113243106
6332.9084004551278,-0.029300706808624948,35.245404897277581,-114.74413034646633
6510.6935554814681,-0.028596992628576613,35.476690188927812,-114.90061951477014
6693.4697129586748,-0.0364047635025068,35.617373834132707,-115.66550901456405
6881.3769864156766,0.012635365965806462,35.768662302511835,-116.15587685784587
7074.5594228198788,-0.043035947674700405,35.9622684763264,-116.26785215717283
7273.1651130014698,-0.055320160266754223,36.190551677935659,-116.88091410893885
7477.346305177588,-0.088064144035953154,36.425473927444749,-117.1835719168442
7687.2595216637437,-0.054851829442412972,36.605624593480378,-116.92694637652529
7903.0656788613478,-0.025084826893880561,36.780720965039741,-117.69872771185425
8124.930210614064,-0.049741438554623901,37.109939913580682,-117.96360825083229
8353.0231950267789,-0.037004279291783904,37.341128454653536,-118.55017017033531
